 (000.000000)  can1  18FEDF00   [8]  8A A0 28 7D 7D FF FF F5
 (000.005145)  can1  0CF00300   [8]  D0 7A 2E FF FF 0F 75 82
 (000.005721)  can1  0CF00A00   [8]  21 08 C4 17 FF FF FF FF
 (000.006309)  can1  18FEF000   [8]  FF FF FF C0 2B FF FF FF
 (000.006884)  can1  18F00E00   [8]  84 17 FF FF D5 9F FF FF
 (000.007432)  can1  0CF00203   [8]  C1 7B 15 FF F7 EC 26 03
 (000.008098)  can1  0CF00C03   [8]  78 04 4A 32 FF FF FF FF
 (000.009864)  can1  18F03300   [8]  FF FF FF FF FF FF FF FF
 (000.011819)  can1  0CF00400   [8]  11 A3 A3 2C 32 00 0F A3
 (000.014825)  can1  18FCF200   [8]  E1 FF FF FF FF FF FF FF
 (000.016890)  can1  0CF00203   [8]  C1 7B 15 FF F7 F8 26 03
 (000.019846)  can1  18FEDF00   [8]  8A A0 28 7D 7D FF FF F5
 (000.020433)  can1  18FDC600   [8]  FC 04 FF FF FF FF FF FF
 (000.021080)  can1  18F00F00   [8]  72 0F FF FF D5 9F FF FF
 (000.025176)  can1  0CF00300   [8]  D0 7A 2E FF FF 0F 75 82
 (000.025740)  can1  18FEF100   [8]  FF 94 18 FC FF 68 00 CF
 (000.026945)  can1  0CF00203   [8]  C1 7B 15 FF F7 F8 26 03
 (000.027561)  can1  0CF00C03   [8]  7A 04 3F 32 FF FF FF FF
 (000.031837)  can1  0CF00400   [8]  11 A3 A3 59 32 00 0F A3
 (000.034790)  can1  10FDA300   [8]  FF FF 34 FF FF FF FF FF
 (000.035361)  can1  18F00029   [8]  F0 7D 7D F3 29 FF FF 35
 (000.036868)  can1  0CF00203   [8]  C1 8A 15 FF F7 09 27 03
 (000.039829)  can1  18FEDF00   [8]  8A A0 28 7D 7D FF FF F5
 (000.043858)  can1  18F00131   [8]  FF FF FF 3F 00 FF FF FF
 (000.044443)  can1  18FEF131   [8]  F3 FF FF C3 CC FF FF F0
 (000.045072)  can1  18FEF031   [8]  FF FF FF FF FF FC CC FF
 (000.045601)  can1  18FCDC00   [8]  9F FF FF FF 9C 68 94 18
 (000.046203)  can1  18FF4831   [8]  00 00 FF FF 00 00 00 00
 (000.046781)  can1  0CF00300   [8]  D0 7A 2E FF FF 0F 75 82
 (000.047294)  can1  0CF00203   [8]  C1 8A 15 FF F7 09 27 03
 (000.047869)  can1  18FEF231   [8]  FF FF FF FF FF FF FF FF
 (000.048474)  can1  0CF00C03   [8]  79 04 2A 32 FF FF FF FF
 (000.049004)  can1  0CF00331   [8]  FF FF FF FF FF FF FF FF
 (000.049599)  can1  0C010305   [8]  FF FF FF FF FF F3 FF FF
 (000.050172)  can1  1CFE9200   [8]  FF 68 BD FF FF FF 5C 00
 (000.052042)  can1  0CF00400   [8]  21 A3 A3 2C 32 00 0F A3
 (000.054780)  can1  0CF00A00   [8]  0E 08 F3 17 FF FF FF FF
 (000.055368)  can1  18FD9400   [8]  63 17 FF FF FF FF FF FF
 (000.055945)  can1  18F00E00   [8]  78 17 FF FF D5 9F FF FF
 (000.056944)  can1  0CF00203   [8]  C1 A3 15 FF F7 21 27 03
 (000.059846)  can1  18F03300   [8]  FF FF FF FF FF FF FF FF
 (000.060419)  can1  18FEDF00   [8]  8A A0 28 7D 7D FF FF F5
 (000.065180)  can1  18FEE000   [8]  E6 91 00 00 2F FB 34 00
 (000.065741)  can1  0CF00300   [8]  D0 7A 2E FF FF 0F 76 82
 (000.066960)  can1  0CF00203   [8]  C1 A3 15 FF F7 21 27 03
 (000.067608)  can1  0CF00C03   [8]  75 04 3F 32 FF FF FF FF
 (000.068166)  can1  18F00503   [8]  7F 12 07 7F 35 20 32 43
 (000.068833)  can1  18FE4A03   [8]  03 0F 4F FF FF F3 FF FF
 (000.069888)  can1  18FEF200   [8]  15 01 8C 03 7F 09 E1 FF
 (000.070469)  can1  18F00F00   [8]  72 0F FF FF D5 9F FF FF
 (000.071985)  can1  0CF00400   [8]  21 A3 A3 4A 32 00 0F A3
 (000.074920)  can1  18F0010B   [8]  CF FF F0 FF FF CD FF FF
 (000.076887)  can1  0CF00203   [8]  C1 A7 15 FF F7 2E 27 03
 (000.079906)  can1  18FEDF00   [8]  8A A0 28 7D 7D FF FF F5
 (000.080503)  can1  10FCFD00   [8]  FF FF FF FF 30 87 FF FF
 (000.084955)  can1  18FEBF0B   [8]  F0 18 7E 7C 7C 7E FF FF
 (000.085516)  can1  0CF00300   [8]  D0 7A 2E FF FF 0F 76 82
 (000.086969)  can1  0CF00203   [8]  C1 A7 15 FF F7 2E 27 03
 (000.087483)  can1  0CF00C03   [8]  75 04 31 32 FF FF FF FF
 (000.089874)  can1  18F00100   [8]  FF FF FF FF FF FF FF FF
 (000.091919)  can1  0CF00400   [8]  21 A3 A3 4E 32 00 0F A3
 (000.093951)  can1  0CF00331   [8]  FF FF FF FF FF FF FF FF
 (000.096882)  can1  0CF00203   [8]  C1 AF 15 FF F7 5B 27 03
 (000.099429)  can1  0C010305   [8]  FF FF FF FF FF F3 FF FF
 (000.100009)  can1  18FEDF00   [8]  8A A0 28 7D 7D FF FF F5
 (000.105178)  can1  0CF00300   [8]  D0 7A 2E FF FF 0F 76 82
 (000.105752)  can1  0CF00A00   [8]  0E 08 F3 17 FF FF FF FF
 (000.106412)  can1  18FEF000   [8]  FF FF FF C0 2B FF FF FF
 (000.106893)  can1  0CF00203   [8]  C1 AF 15 FF F7 5B 27 03
 (000.107460)  can1  18F00E00   [8]  78 17 FF FF D5 9F FF FF
 (000.108036)  can1  0CF00C03   [8]  72 04 59 32 FF FF FF FF
 (000.109814)  can1  18F03300   [8]  FF FF FF FF FF FF FF FF
 (000.111854)  can1  0CF00400   [8]  01 A3 A3 2C 32 00 0F A3
 (000.114762)  can1  18FCF200   [8]  E1 FF FF FF FF FF FF FF
 (000.116886)  can1  0CF00203   [8]  C1 D3 15 FF F7 92 27 03
 (000.119865)  can1  18FEDF00   [8]  8A A0 28 7D 7D FF FF F5
 (000.120454)  can1  18F00F00   [8]  72 0F FF FF D5 9F FF FF
 (000.125213)  can1  0CF00300   [8]  D0 7A 2E FF FF 0F 75 82
 (000.125783)  can1  18FEF100   [8]  FF E4 18 FC FF 68 00 CF
 (000.126976)  can1  0CF00203   [8]  C1 D3 15 FF F7 92 27 03
 (000.127545)  can1  0CF00C03   [8]  71 04 F2 31 FF FF FF FF
 (000.131879)  can1  0CF00400   [8]  21 A3 A3 FE 31 00 0F A3
 (000.134773)  can1  10FDA300   [8]  FF FF 34 FF FF FF FF FF
 (000.135389)  can1  18F00029   [8]  F0 7D 7D F3 29 FF FF 35
 (000.136936)  can1  0CF00203   [8]  C1 00 16 FF F7 D2 27 03
 (000.139870)  can1  18FEDF00   [8]  8A A0 28 7D 7D FF FF F5
 (000.143870)  can1  18F00131   [8]  FF FF FF 3F 00 FF FF FF
 (000.144456)  can1  18FEF131   [8]  F3 FF FF C3 CC FF FF F0
 (000.145069)  can1  18FEF031   [8]  FF FF FF FF FF FC CC FF
 (000.145610)  can1  18FCDC00   [8]  9F FF FF FF 9C 68 E4 18
 (000.146194)  can1  18FF4831   [8]  00 00 FF FF 00 00 00 00
 (000.146753)  can1  0CF00300   [8]  D0 7A 2E FF FF 0F 75 82
 (000.147312)  can1  0CF00203   [8]  C1 00 16 FF F7 D2 27 03
 (000.147888)  can1  18FEF231   [8]  FF FF FF FF FF FF FF FF
 (000.148512)  can1  0CF00C03   [8]  68 04 C1 31 FF FF FF FF
 (000.149035)  can1  0CF00331   [8]  FF FF FF FF FF FF FF FF
 (000.149618)  can1  0C010305   [8]  FF FF FF FF FF F3 FF FF
 (000.150193)  can1  1CFE9200   [8]  FF A4 BD FF FF FF 5C 00
 (000.152080)  can1  0CF00400   [8]  21 A3 A3 AF 31 00 0F A3
 (000.154805)  can1  0CF00A00   [8]  05 08 B1 17 FF FF FF FF
 (000.155414)  can1  18FD9400   [8]  63 17 FF FF FF FF FF FF
 (000.155967)  can1  18F00E00   [8]  6A 17 FF FF D5 9F FF FF
 (000.156878)  can1  0CF00203   [8]  C1 36 16 FF F7 3F 28 03
 (000.159878)  can1  18F03300   [8]  FF FF FF FF FF FF FF FF
 (000.160456)  can1  18FEDF00   [8]  8A A0 28 7D 7D FF FF F5
 (000.165235)  can1  18FEE000   [8]  E6 91 00 00 2F FB 34 00
 (000.165816)  can1  0CF00300   [8]  D0 7A 2E FF FF 0F 77 82
 (000.166967)  can1  0CF00203   [8]  C1 36 16 FF F7 3F 28 03
 (000.167573)  can1  0CF00C03   [8]  5B 04 52 31 FF FF FF FF
 (000.168238)  can1  18F00503   [8]  7F 12 07 7F 35 20 32 43
 (000.168788)  can1  18FE4A03   [8]  03 0F 4F FF FF F3 FF FF
 (000.169985)  can1  18FEF200   [8]  15 01 92 03 7E 09 E1 FF
 (000.170500)  can1  18F00F00   [8]  72 0F FF FF D5 9F FF FF
 (000.171997)  can1  0CF00400   [8]  41 A3 A3 21 31 00 0F A3
 (000.175166)  can1  18F0010B   [8]  CF FF F0 FF FF CD FF FF
 (000.176889)  can1  0CF00203   [8]  C1 65 16 FF F7 A6 28 03
 (000.179924)  can1  18FEDF00   [8]  8A A0 28 7D 7D FF FF F5
 (000.180511)  can1  10FCFD00   [8]  FF FF FF FF 79 86 FF FF
 (000.181121)  can1  0CFD9200   [8]  F4 FF FF FF FF FF FF FF
 (000.185204)  can1  18FEBF0B   [8]  10 19 7E 7C 80 84 FF FF
 (000.185758)  can1  0CF00300   [8]  D0 7A 2E FF FF 0F 76 82
 (000.186985)  can1  0CF00203   [8]  C1 65 16 FF F7 A6 28 03
 (000.187559)  can1  0CF00C03   [8]  4F 04 A0 30 FF FF FF FF
 (000.189896)  can1  18F00100   [8]  FF FF FF FF FF FF FF FF
 (000.191906)  can1  0CF00400   [8]  41 A4 A3 54 30 00 0F A4
 (000.193948)  can1  0CF00331   [8]  FF FF FF FF FF FF FF FF
 (000.196884)  can1  0CF00203   [8]  C1 73 16 FF F7 B5 28 03
 (000.199459)  can1  0C010305   [8]  FF FF FF FF FF F3 FF FF
 (000.200036)  can1  18FEDF00   [8]  8A A0 28 7D 7D FF FF F5
 (000.205275)  can1  0CF00300   [8]  D0 7A 2E FF FF 0F 78 82
 (000.205811)  can1  0CF00A00   [8]  05 08 4A 17 FF FF FF FF
 (000.206398)  can1  18FEF000   [8]  FF FF FF C0 2B FF FF FF
 (000.206945)  can1  0CF00203   [8]  C1 73 16 FF F7 B5 28 03
 (000.207525)  can1  18F00E00   [8]  6A 17 FF FF D5 9F FF FF
 (000.208075)  can1  0CF00C03   [8]  43 04 F8 2F FF FF FF FF
 (000.209867)  can1  18F03300   [8]  FF FF FF FF FF FF FF FF
 (000.211863)  can1  0CF00400   [8]  61 A4 A3 C1 2F 00 0F A4
 (000.214817)  can1  18FCF200   [8]  E1 FF FF FF FF FF FF FF
 (000.216887)  can1  0CF00203   [8]  C1 4A 16 FF F7 42 28 03
 (000.219878)  can1  18FEDF00   [8]  8A A0 28 7D 7D FF FF F5
 (000.220464)  can1  18F00F00   [8]  72 0F FF FF D5 9F FF FF
 (000.225266)  can1  0CF00300   [8]  D0 7A 2F FF FF 0F 77 82
 (000.225822)  can1  18FEF100   [8]  FF 58 19 FC FF 68 00 CF
 (000.226981)  can1  0CF00203   [8]  C1 4A 16 FF F7 42 28 03
 (000.227607)  can1  0CF00C03   [8]  41 04 48 2F FF FF FF FF
 (000.231888)  can1  0CF00400   [8]  01 A4 A4 39 2F 00 0F A4
 (000.234808)  can1  10FDA300   [8]  FF FF 32 FF FF FF FF FF
 (000.235380)  can1  18F00029   [8]  F0 7D 7D F3 29 FF FF 36
 (000.236889)  can1  0CF00203   [8]  C1 F4 15 FF F7 9C 27 03
 (000.239868)  can1  18FEDF00   [8]  8A A0 28 7D 7D FF FF F5
 (000.243861)  can1  18F00131   [8]  FF FF FF 3F 00 FF FF FF
 (000.244448)  can1  18FEF131   [8]  F3 FF FF C3 CC FF FF F0
 (000.245054)  can1  18FEF031   [8]  FF FF FF FF FF FC CC FF
 (000.245611)  can1  18FCDC00   [8]  9F FF FF FF 9C 68 58 19
 (000.246286)  can1  18FF4831   [8]  00 00 FF FF 00 00 00 00
 (000.246775)  can1  0CF00300   [8]  D0 7A 2F FF FF 0F 7A 82
 (000.247327)  can1  0CF00203   [8]  C1 F4 15 FF F7 9C 27 03
 (000.247906)  can1  18FEF231   [8]  FF FF FF FF FF FF FF FF
 (000.248464)  can1  0CF00C03   [8]  42 04 DC 2E FF FF FF FF
 (000.249060)  can1  0CF00331   [8]  FF FF FF FF FF FF FF FF
 (000.249652)  can1  0C010305   [8]  FF FF FF FF FF F3 FF FF
 (000.250194)  can1  1CFE9200   [8]  FF B8 BC FF FF FF 5A 00
 (000.252036)  can1  0CF00400   [8]  21 A4 A4 9B 2E 00 0F A4
 (000.254824)  can1  14FC9800   [8]  FF 00 00 00 00 00 00 FF
 (000.255406)  can1  0CF00A00   [8]  05 08 02 16 FF FF FF FF
 (000.255983)  can1  18FD9400   [8]  63 17 FF FF FF FF FF FF
 (000.256577)  can1  18F00E00   [8]  6A 17 FF FF D5 9F FF FF
 (000.257120)  can1  0CF00203   [8]  C1 BB 15 FF F7 5F 27 03
 (000.259870)  can1  18F03300   [8]  FF FF FF FF FF FF FF FF
 (000.260447)  can1  18FEDF00   [8]  8A A0 28 7D 7D FF FF F5
 (000.265190)  can1  18FEE000   [8]  E6 91 00 00 2F FB 34 00
 (000.265746)  can1  0CF00300   [8]  D0 7A 30 FF FF 0F 79 82
 (000.266967)  can1  0CF00203   [8]  C1 BB 15 FF F7 5F 27 03
 (000.267586)  can1  0CF00C03   [8]  40 04 15 2E FF FF FF FF
 (000.268338)  can1  18F00503   [8]  7F 12 07 7F 35 20 32 43
 (000.268806)  can1  18FE4A03   [8]  03 0F 4F FF FF F3 FF FF
 (000.269934)  can1  18FDB400   [8]  20 44 E0 3E FF FF FF FF
 (000.270525)  can1  18FEF200   [8]  15 01 A8 03 7E 09 E1 FF
 (000.271094)  can1  18F00F00   [8]  72 0F FF FF D5 9F FF FF
 (000.272052)  can1  0CF00400   [8]  11 A4 A4 DF 2D 00 0F A4
 (000.275417)  can1  18F0010B   [8]  CF FF F0 FF FF CD FF FF
 (000.276895)  can1  0CF00203   [8]  C1 CF 15 FF F7 90 27 03
 (000.279937)  can1  18FEDF00   [8]  8A A0 28 7D 7D FF FF F5
 (000.280591)  can1  10FCFD00   [8]  FF FF FF FF 50 83 FF FF
 (000.285252)  can1  0CF00300   [8]  D0 7A 30 FF FF 0F 7A 82
 (000.285813)  can1  18FEBF0B   [8]  60 19 7D 7D 7D 7D FF FF
 (000.286948)  can1  0CF00203   [8]  C1 CF 15 FF F7 90 27 03
 (000.287510)  can1  0CF00C03   [8]  2D 04 99 2D FF FF FF FF
 (000.289911)  can1  18F00100   [8]  FF FF FF FF FF FF FF FF
 (000.291898)  can1  0CF00400   [8]  21 A5 A4 7B 2D 00 0F A5
 (000.293956)  can1  0CF00331   [8]  FF FF FF FF FF FF FF FF
 (000.294821)  can1  18FDB300   [8]  FF FF 59 43 FF FF FF FF
 (000.296901)  can1  0CF00203   [8]  C1 02 16 FF F7 E1 27 03
 (000.299440)  can1  0C010305   [8]  FF FF FF FF FF F3 FF FF
 (000.300030)  can1  18FEDF00   [8]  8A A0 28 7D 7D FF FF F5
 (000.305254)  can1  0CF00300   [8]  D0 7A 30 FF FF 0F 79 82
 (000.305822)  can1  0CF00A00   [8]  DF 07 46 15 FF FF FF FF
 (000.306417)  can1  18FEF000   [8]  FF FF FF C0 2B FF FF FF
 (000.307102)  can1  0CF00203   [8]  C1 02 16 FF F7 E1 27 03
 (000.307585)  can1  18F00E00   [8]  5E 17 FF FF D5 9F FF FF
 (000.308111)  can1  0CF00C03   [8]  1B 04 2E 2D FF FF FF FF
 (000.309896)  can1  18F03300   [8]  FF FF FF FF FF FF FF FF
 (000.311878)  can1  0CF00400   [8]  11 A5 A4 28 2D 00 0F A5
 (000.314783)  can1  18FDB200   [8]  FF FF FF FF 13 00 FF FF
 (000.315389)  can1  18FCF200   [8]  E1 FF FF FF FF FF FF FF
 (000.316891)  can1  0CF00203   [8]  C1 33 16 FF F7 28 28 03
 (000.319894)  can1  18FEDF00   [8]  8A A0 28 7D 7D FF FF F5
 (000.320478)  can1  18F00F00   [8]  7C 0F FF FF D5 9F FF FF
 (000.325250)  can1  0CF00300   [8]  D0 7A 30 FF FF 0F 7B 82
 (000.325807)  can1  18FEF100   [8]  FF 64 19 FC FF 68 00 CF
 (000.326957)  can1  0CF00203   [8]  C1 33 16 FF F7 28 28 03
 (000.327556)  can1  0CF00C03   [8]  10 04 E2 2C FF FF FF FF
 (000.331885)  can1  0CF00400   [8]  21 A5 A4 D2 2C 00 0F A5
 (000.334839)  can1  10FDA300   [8]  FF FF 2F FF FF FF FF FF
 (000.335412)  can1  18F00029   [8]  F0 7D 7D F3 29 FF FF 37
 (000.336926)  can1  0CF00203   [8]  C1 37 16 FF F7 3C 28 03
 (000.339885)  can1  18FD8C00   [8]  FF FF 0F 00 FF FF FF FF
 (000.340458)  can1  18FEDF00   [8]  8A A0 28 7D 7D FF FF F5
 (000.343876)  can1  18F00131   [8]  FF FF FF 3F 00 FF FF FF
 (000.344462)  can1  18FEF131   [8]  F3 FF FF C3 CC FF FF F0
 (000.345143)  can1  18FEF031   [8]  FF FF FF FF FF FC CC FF
 (000.345620)  can1  18FCDC00   [8]  9F FF FF FF 9C 68 64 19
 (000.346201)  can1  18FF4831   [8]  00 00 FF FF 00 00 00 00
 (000.346812)  can1  0CF00300   [8]  D0 7A 30 FF FF 0F 7A 82
 (000.347384)  can1  0CF00203   [8]  C1 37 16 FF F7 3C 28 03
 (000.347902)  can1  18FEF231   [8]  FF FF FF FF FF FF FF FF
 (000.348448)  can1  0CF00C03   [8]  0E 04 9C 2C FF FF FF FF
 (000.349024)  can1  0CF00331   [8]  FF FF FF FF FF FF FF FF
 (000.349611)  can1  0C010305   [8]  FF FF FF FF FF F3 FF FF
 (000.350192)  can1  18FECA03   [8]  00 FF 00 00 00 00 FF FF
 (000.350766)  can1  1CFE9200   [8]  FF 00 BB FF FF FF 5A 00
 (000.352106)  can1  0CF00400   [8]  21 A5 A4 59 2C 00 0F A5
 (000.354816)  can1  0CF00A00   [8]  65 07 05 15 FF FF FF FF
 (000.355403)  can1  18FD9400   [8]  C9 14 FF FF FF FF FF FF
 (000.356038)  can1  18F00E00   [8]  5E 17 FF FF D5 9F FF FF
 (000.356893)  can1  0CF00203   [8]  C1 39 16 FF F7 50 28 03
 (000.359849)  can1  18FD2000   [8]  20 44 FF FF FF FF FF FF
 (000.360446)  can1  18F03300   [8]  FF FF FF FF FF FF FF FF
 (000.361019)  can1  18FEDF00   [8]  8A A0 28 7D 7D FF FF F5
 (000.365204)  can1  18FEE000   [8]  E6 91 00 00 2F FB 34 00
 (000.365763)  can1  0CF00300   [8]  D0 7A 30 FF FF 0F 7A 82
 (000.366970)  can1  0CF00203   [8]  C1 39 16 FF F7 50 28 03
 (000.367599)  can1  0CF00C03   [8]  0A 04 1E 2C FF FF FF FF
 (000.368360)  can1  18F00503   [8]  7F 12 07 7F 35 20 32 43
 (000.368814)  can1  18FE4A03   [8]  03 0F 4F FF FF F3 FF FF
 (000.370034)  can1  18FEF200   [8]  13 01 AD 03 7F 09 E1 FF
 (000.370628)  can1  18F00F00   [8]  7C 0F FF FF D5 9F FF FF
 (000.372078)  can1  0CF00400   [8]  31 A5 A4 23 2C 00 0F A5
 (000.375650)  can1  18F0010B   [8]  CF FF F0 FF FF CD FF FF
 (000.376932)  can1  0CF00203   [8]  C1 3E 16 FF F7 43 28 03
 (000.379962)  can1  18FEDF00   [8]  8A A0 28 7D 7D FF FF F5
 (000.380549)  can1  10FCFD00   [8]  FF FF FF FF B6 7B FF FF
 (000.385216)  can1  18FD3E00   [8]  23 41 FF B6 40 FF FF FF
 (000.385772)  can1  18FEBF0B   [8]  A0 19 7D 7D 77 7D FF FF
 (000.386428)  can1  0CF00300   [8]  D0 7A 30 FF FF 0F 79 82
 (000.386896)  can1  0CF00203   [8]  C1 3E 16 FF F7 43 28 03
 (000.387497)  can1  0CF00C03   [8]  08 04 26 2C FF FF FF FF
 (000.389930)  can1  18F00100   [8]  FF FF FF FF FF FF FF FF
 (000.391922)  can1  0CF00400   [8]  31 A5 A4 FD 2B 00 0F A5
 (000.393956)  can1  0CF00331   [8]  FF FF FF FF FF FF FF FF
 (000.396892)  can1  0CF00203   [8]  C1 39 16 FF F7 29 28 03
 (000.399447)  can1  0C010305   [8]  FF FF FF FF FF F3 FF FF
 (000.400024)  can1  18FEDF00   [8]  8A A0 28 7D 7D FF FF F5
 (000.405228)  can1  18FD4000   [8]  FF 3F 00 FF FF FF FF FF
 (000.405789)  can1  0CF00300   [8]  D0 7A 30 FF FF 0F 7D 82
 (000.406379)  can1  0CF00A00   [8]  2D 07 94 14 FF FF FF FF
 (000.406962)  can1  18FEF000   [8]  FF FF FF C0 2B FF FF FF
 (000.407549)  can1  0CF00203   [8]  C1 39 16 FF F7 29 28 03
 (000.408098)  can1  18F00E00   [8]  5E 17 FF FF D5 9F FF FF
 (000.408652)  can1  0CF00C03   [8]  06 04 AB 2B FF FF FF FF
 (000.409943)  can1  18F03300   [8]  FF FF FF FF FF FF FF FF
 (000.412035)  can1  0CF00400   [8]  51 A5 A4 B5 2B 00 0F A5
 (000.414841)  can1  18FCF200   [8]  E1 FF FF FF FF FF FF FF
 (000.416886)  can1  0CF00203   [8]  C1 39 16 FF F7 3D 28 03
 (000.419916)  can1  18FEDF00   [8]  8A A0 28 7D 7D FF FF F5
 (000.420514)  can1  18F00F00   [8]  7C 0F FF FF D5 9F FF FF
 (000.425276)  can1  0CF00300   [8]  D0 7A 30 FF FF 0F 7C 82
 (000.425834)  can1  18FEF100   [8]  FF 84 19 FC FF 68 00 CF
 (000.426979)  can1  0CF00203   [8]  C1 39 16 FF F7 3D 28 03
 (000.427550)  can1  0CF00C03   [8]  04 04 97 2B FF FF FF FF
 (000.429927)  can1  18FCC500   [8]  23 41 FF FF FF FF FF FF
 (000.430525)  can1  0CFD9200   [8]  F4 FF FF FF FF FF FF FF
 (000.431906)  can1  0CF00400   [8]  61 A5 A4 7B 2B 00 0F A5
 (000.434815)  can1  10FDA300   [8]  FF FF 30 FF FF FF FF FF
 (000.435415)  can1  18F00029   [8]  F0 7D 7D F3 29 FF FF 37
 (000.437009)  can1  0CF00203   [8]  C1 71 16 FF F7 CF 28 03
 (000.439866)  can1  18FEDF00   [8]  8A A0 28 7D 7D FF FF F5
 (000.443871)  can1  18F00131   [8]  FF FF FF 3F 00 FF FF FF
 (000.444456)  can1  18FEF131   [8]  F3 FF FF C3 CC FF FF F0
 (000.445089)  can1  18FEF031   [8]  FF FF FF FF FF FC CC FF
 (000.445608)  can1  18FCDC00   [8]  9F FF FF FF 9C 68 84 19
 (000.446191)  can1  18FF4831   [8]  00 00 FF FF 00 00 00 00
 (000.446754)  can1  0CF00300   [8]  D0 7A 30 FF FF 0F 7B 82
 (000.447299)  can1  0CF00203   [8]  C1 71 16 FF F7 CF 28 03
 (000.447879)  can1  18FEF231   [8]  FF FF FF FF FF FF FF FF
 (000.448452)  can1  0CF00C03   [8]  FF 03 33 2B FF FF FF FF
 (000.449022)  can1  0CF00331   [8]  FF FF FF FF FF FF FF FF
 (000.449608)  can1  0C010305   [8]  FF FF FF FF FF F3 FF FF
 (000.450259)  can1  1CFE9200   [8]  FF 40 BC FF FF FF 56 00
 (000.452109)  can1  0CF00400   [8]  61 A5 A4 0A 2B 00 0F A5
 (000.454843)  can1  0CF00A00   [8]  5F 06 F2 14 FF FF FF FF
 (000.455546)  can1  18FD9400   [8]  96 0F FF FF FF FF FF FF
 (000.456011)  can1  18FEEF00   [8]  FF FF FF 40 B8 7D FF FA
 (000.456576)  can1  18F00E00   [8]  42 17 FF FF D5 9F FF FF
 (000.457136)  can1  0CF00203   [8]  C1 C2 16 FF F7 48 29 03
 (000.459914)  can1  18F03300   [8]  FF FF FF FF FF FF FF FF
 (000.460492)  can1  18FEDF00   [8]  8A A0 28 7D 7D FF FF F5
 (000.465209)  can1  18FEE000   [8]  E6 91 00 00 2F FB 34 00
 (000.465773)  can1  0CF00300   [8]  D0 7A 30 FF FF 0F 7C 82
 (000.466971)  can1  0CF00203   [8]  C1 C2 16 FF F7 48 29 03
 (000.467581)  can1  0CF00C03   [8]  E8 03 C0 2A FF FF FF FF
 (000.468357)  can1  18F00503   [8]  7F 12 07 7F 35 20 32 43
 (000.468794)  can1  18FE4A03   [8]  03 0F 4F FF FF F3 FF FF
 (000.470023)  can1  18FEF200   [8]  EB 00 55 04 7E 09 E1 FF
 (000.470574)  can1  18F00F00   [8]  7C 0F FF FF D5 9F FF FF
 (000.472054)  can1  0CF00400   [8]  51 A5 A4 CF 2A 00 0F A5
 (000.474844)  can1  18FEDB00   [8]  FF FF 67 78 FF FF FF FF
 (000.475887)  can1  18F0010B   [8]  CF FF F0 FF FF CD FF FF
 (000.477027)  can1  0CF00203   [8]  C1 D5 16 FF F7 38 29 03
 (000.479977)  can1  18FEDF00   [8]  8A A0 28 7D 7D FF FF F5
 (000.480574)  can1  10FCFD00   [8]  FF FF FF FF D6 75 FF FF
 (000.485315)  can1  0CF00300   [8]  D0 7A 30 FF FF 0F 80 82
 (000.485917)  can1  18FEBF0B   [8]  B0 19 7E 7C 80 7E FF FF
 (000.486890)  can1  0CF00203   [8]  C1 D5 16 FF F7 38 29 03
 (000.487492)  can1  0CF00C03   [8]  E8 03 D3 2A FF FF FF FF
 (000.489948)  can1  18F00100   [8]  FF FF FF FF FF FF FF FF
 (000.491927)  can1  0CF00400   [8]  41 A5 A4 96 2A 00 0F A5
 (000.493964)  can1  0CF00331   [8]  FF FF FF FF FF FF FF FF
 (000.494905)  can1  18FEF600   [8]  FF 17 61 FF FF FF FF FF
 (000.496885)  can1  0CF00203   [8]  C1 70 16 FF F7 7C 28 03
 (000.499488)  can1  0C010305   [8]  FF FF FF FF FF F3 FF FF
 (000.500066)  can1  18FEDF00   [8]  8A A0 28 7D 7D FF FF F5
 (000.505259)  can1  0CF00300   [8]  D0 79 30 FF FF 0F 7F 82
 (000.505839)  can1  0CF00A00   [8]  55 06 78 14 FF FF FF FF
 (000.506427)  can1  18FEF000   [8]  FF FF FF C1 2A FF FF FF
 (000.506984)  can1  0CF00203   [8]  C1 70 16 FF F7 7C 28 03
 (000.507557)  can1  18F00E00   [8]  38 17 FF FF D5 9F FF FF
 (000.508123)  can1  0CF00C03   [8]  E8 03 6C 2A FF FF FF FF
 (000.509921)  can1  18F03300   [8]  FF FF FF FF FF FF FF FF
 (000.511962)  can1  0CF00400   [8]  41 A5 A4 7C 2A 00 0F A5
 (000.514869)  can1  18FCF200   [8]  E1 FF FF FF FF FF FF FF
 (000.516883)  can1  0CF00203   [8]  C1 29 16 FF F7 2D 28 03
 (000.519932)  can1  18FEDF00   [8]  8A A0 28 7D 7D FF FF F5
 (000.520521)  can1  18FDC600   [8]  FC 04 FF FF FF FF FF FF
 (000.521166)  can1  18F00F00   [8]  7C 0F FF FF D5 9F FF FF
 (000.525339)  can1  0CF00300   [8]  D0 79 30 FF FF 0F 7E 82
 (000.525904)  can1  18FEF100   [8]  FF C4 19 FC FF 68 00 CF
 (000.526958)  can1  0CF00203   [8]  C1 29 16 FF F7 2D 28 03
 (000.527563)  can1  0CF00C03   [8]  E8 03 F7 29 FF FF FF FF
 (000.531934)  can1  0CF00400   [8]  31 A5 A4 C4 29 00 0F A5
 (000.534838)  can1  10FDA300   [8]  FF FF 33 FF FF FF FF FF
 (000.535416)  can1  18F00029   [8]  F0 7D 7D F3 29 FF FF 38
 (000.536887)  can1  0CF00203   [8]  C1 6F 16 FF F7 D9 28 03
 (000.539929)  can1  18FEDF00   [8]  8A A0 28 7D 7D FF FF F5
 (000.543886)  can1  18F00131   [8]  FF FF FF 3F 00 FF FF FF
 (000.544462)  can1  18FEF131   [8]  F3 FF FF C3 CC FF FF F0
 (000.545050)  can1  18FEF031   [8]  FF FF FF FF FF FC CC FF
 (000.545610)  can1  18FCDC00   [8]  9F FF FF FF 9C 68 C4 19
 (000.546198)  can1  18FF4831   [8]  00 00 FF FF 00 00 00 00
 (000.546829)  can1  0CF00300   [8]  D0 79 30 FF FF 0F 7F 82
 (000.547329)  can1  0CF00203   [8]  C1 6F 16 FF F7 D9 28 03
 (000.547922)  can1  18FEF231   [8]  FF FF FF FF FF FF FF FF
 (000.548474)  can1  0CF00C03   [8]  E8 03 C2 29 FF FF FF FF
 (000.549031)  can1  0CF00331   [8]  FF FF FF FF FF FF FF FF
 (000.549626)  can1  0C010305   [8]  FF FF FF FF FF F3 FF FF
 (000.550199)  can1  1CFE9200   [8]  FF 04 BC FF FF FF 54 00
 (000.552111)  can1  0CF00400   [8]  11 A5 A4 A1 29 00 0F A5
 (000.554869)  can1  0CF00A00   [8]  74 05 A7 14 FF FF FF FF
 (000.555456)  can1  18FD9400   [8]  FD 0C FF FF FF FF FF FF
 (000.556058)  can1  18F00E00   [8]  36 17 FF FF D5 9F FF FF
 (000.556888)  can1  0CF00203   [8]  C1 E1 16 FF F7 76 29 03
 (000.559918)  can1  18F03300   [8]  FF FF FF FF FF FF FF FF
 (000.560498)  can1  18FEDF00   [8]  89 A0 28 7D 7D FF FF F5
 (000.565248)  can1  18FEF700   [8]  FF FF FF FF 18 01 FF FF
 (000.565815)  can1  18FEE000   [8]  E6 91 00 00 2F FB 34 00
 (000.566383)  can1  0CF00300   [8]  D0 78 30 FF FF 0F 82 82
 (000.566943)  can1  0CF00203   [8]  C1 E1 16 FF F7 76 29 03
 (000.567562)  can1  0CF00C03   [8]  E8 03 42 29 FF FF FF FF
 (000.568157)  can1  18F00503   [8]  7F 12 07 7F 35 20 32 43
 (000.568763)  can1  18FE4A03   [8]  03 0F 4F FF FF F3 FF FF
 (000.569974)  can1  18FEF200   [8]  E8 00 72 04 7F 09 E1 FF
 (000.570581)  can1  18F00F00   [8]  7C 0F FF FF D5 9F FF FF
 (000.572050)  can1  0CF00400   [8]  71 A5 A3 42 29 00 0F A5
 (000.576116)  can1  18F0010B   [8]  CF FF F0 FF FF CD FF FF
 (000.576948)  can1  0CF00203   [8]  C1 C4 16 FF F7 2E 29 03
 (000.580002)  can1  18FEDF00   [8]  89 A0 28 7D 7D FF FF F5
 (000.580591)  can1  10FCFD00   [8]  FF FF FF FF BC 6D FF FF
 (000.585228)  can1  18FEC100   [8]  AB 87 2C 05 85 3F 0E 00
 (000.585793)  can1  0CF00300   [8]  D0 79 30 FF FF 0F 85 82
 (000.586449)  can1  18FEBF0B   [8]  10 1A 7E 7C 7E 7E FF FF
 (000.586960)  can1  0CF00203   [8]  C1 C4 16 FF F7 2E 29 03
 (000.587570)  can1  0CF00C03   [8]  E8 03 F8 28 FF FF FF FF
 (000.589982)  can1  18F00100   [8]  FF FF FF FF FF FF FF FF
 (000.591997)  can1  0CF00400   [8]  21 A5 A4 EB 28 00 0F A5
 (000.593970)  can1  0CF00331   [8]  FF FF FF FF FF FF FF FF
 (000.596888)  can1  0CF00203   [8]  C1 6F 16 FF F7 94 28 03
 (000.599495)  can1  0C010305   [8]  FF FF FF FF FF F3 FF FF
 (000.600075)  can1  18FEDF00   [8]  89 A0 28 7D 7D FF FF F5
 (000.605281)  can1  0CF00300   [8]  D0 7B 30 FF FF 0F 84 82
 (000.605845)  can1  0CF00A00   [8]  6B 05 2D 14 FF FF FF FF
 (000.606427)  can1  18FEF000   [8]  FF FF FF 0B 29 FF FF FF
 (000.606975)  can1  0CF00203   [8]  C1 6F 16 FF F7 94 28 03
 (000.607591)  can1  18F00E00   [8]  2E 17 FF FF D5 9F FF FF
 (000.608110)  can1  0CF00C03   [8]  E8 03 D6 28 FF FF FF FF
 (000.609949)  can1  18FE5600   [8]  B8 38 FF FF 1F 1F 00 FF
 (000.610510)  can1  18F03300   [8]  FF FF FF FF FF FF FF FF
 (000.611956)  can1  0CF00400   [8]  61 A5 A4 AD 28 00 0F A5
 (000.614883)  can1  18FCF200   [8]  E1 FF FF FF FF FF FF FF
 (000.616889)  can1  0CF00203   [8]  C1 5B 16 FF F7 93 28 03
 (000.619948)  can1  18FEDF00   [8]  89 A0 28 7D 7D FF FF F5
 (000.620533)  can1  18F00F00   [8]  7C 0F FF FF D5 9F FF FF
 (000.625284)  can1  0CF00300   [8]  D0 7C 31 FF FF 0F 85 82
 (000.625848)  can1  18FEF100   [8]  FF F0 19 FC FF 68 00 CF
 (000.627032)  can1  0CF00203   [8]  C1 5B 16 FF F7 93 28 03
 (000.627560)  can1  0CF00C03   [8]  E8 03 95 28 FF FF FF FF
 (000.629921)  can1  18FD7B00   [8]  00 FF 9F 49 00 00 15 22
 (000.631951)  can1  0CF00400   [8]  21 A6 A5 88 28 00 0F A6
 (000.634885)  can1  10FDA300   [8]  FF FF 31 FF FF FF FF FF
 (000.635459)  can1  18F00029   [8]  F0 7D 7D F3 29 FF FF 39
 (000.636889)  can1  0CF00203   [8]  C1 6E 16 FF F7 9B 28 03
 (000.639942)  can1  18FEDF00   [8]  89 A0 28 7D 7D FF FF F5
 (000.643878)  can1  18F00131   [8]  FF FF FF 3F 00 FF FF FF
 (000.644464)  can1  18FEF131   [8]  F3 FF FF C3 CC FF FF F0
 (000.645082)  can1  18FEF031   [8]  FF FF FF FF FF FC CC FF
 (000.645611)  can1  18FCDC00   [8]  9F FF FF FF 9C 68 F0 19
 (000.646198)  can1  18FF4831   [8]  00 00 FF FF 00 00 00 00
 (000.646767)  can1  0CF00300   [8]  D0 7B 31 FF FF 0F 85 82
 (000.647323)  can1  0CF00203   [8]  C1 6E 16 FF F7 9B 28 03
 (000.647893)  can1  18FEF231   [8]  FF FF FF FF FF FF FF FF
 (000.648454)  can1  0CF00C03   [8]  E8 03 7B 28 FF FF FF FF
 (000.649083)  can1  0CF00331   [8]  FF FF FF FF FF FF FF FF
 (000.649655)  can1  0C010305   [8]  FF FF FF FF FF F3 FF FF
 (000.650191)  can1  1CFE9200   [8]  FF 4C B8 FF FF FF 52 00
 (000.652077)  can1  0CF00400   [8]  11 A6 A5 AA 28 00 0F A6
 (000.654870)  can1  0CF00A00   [8]  65 04 CD 14 FF FF FF FF
 (000.655460)  can1  18FD9400   [8]  C9 07 FF FF FF FF FF FF
 (000.656042)  can1  18FEDD00   [8]  FF 14 3D FF FF FF FF FF
 (000.656616)  can1  18F00E00   [8]  2C 17 FF FF D5 9F FF FF
 (000.657200)  can1  0CF00203   [8]  C1 67 16 FF F7 7D 28 03
 (000.659957)  can1  18F03300   [8]  FF FF FF FF FF FF FF FF
 (000.660539)  can1  18FEDF00   [8]  89 A0 28 7D 7D FF FF F5
 (000.665258)  can1  18FEE000   [8]  E6 91 00 00 2F FB 34 00
 (000.665821)  can1  0CF00300   [8]  D0 7B 31 FF FF 0F 88 82
 (000.666971)  can1  0CF00203   [8]  C1 67 16 FF F7 7D 28 03
 (000.667575)  can1  0CF00C03   [8]  E8 03 F3 28 FF FF FF FF
 (000.668269)  can1  18F00503   [8]  7F 12 07 7F 35 20 32 43
 (000.668797)  can1  18FE4A03   [8]  03 0F 4F FF FF F3 FF FF
 (000.669399)  can1  18FD9503   [8]  CC FF FF B4 FF FF FF FF
 (000.669963)  can1  18FEF200   [8]  E5 00 83 04 7E 09 E1 FF
 (000.670546)  can1  18FEF803   [8]  FF FF FF FF 9C 2C FF FF
 (000.671116)  can1  18F00F00   [8]  7C 0F FF FF D5 9F FF FF
 (000.672035)  can1  0CF00400   [8]  01 A5 A5 01 29 00 0F A5
 (000.674982)  can1  18FEE400   [8]  FF 3F FC FC 00 7F FF FF
 (000.676362)  can1  18F0010B   [8]  CF FF F0 FF FF CD FF FF
 (000.676915)  can1  0CF00203   [8]  C1 92 16 FF F7 D4 28 03
 (000.680010)  can1  18FEDF00   [8]  89 A0 28 7D 7D FF FF F5
 (000.680597)  can1  10FCFD00   [8]  FF FF FF FF 1C 6C FF FF
 (000.681175)  can1  0CFD9200   [8]  F4 FF FF FF FF FF FF FF
 (000.685319)  can1  0CF00300   [8]  D0 7B 31 FF FF 0F 87 82
 (000.686387)  can1  18FEBF0B   [8]  30 1A 7E 7C 7E 7C FF FF
 (000.686952)  can1  0CF00203   [8]  C1 92 16 FF F7 D4 28 03
 (000.687546)  can1  0CF00C03   [8]  E8 03 65 29 FF FF FF FF
 (000.689986)  can1  18F00100   [8]  FF FF FF FF FF FF FF FF
 (000.691925)  can1  0CF00400   [8]  11 A5 A5 6A 29 00 0F A5
 (000.693970)  can1  0CF00331   [8]  FF FF FF FF FF FF FF FF
 (000.696890)  can1  0CF00203   [8]  C1 A6 16 FF F7 36 29 03
 (000.699486)  can1  0C010305   [8]  FF FF FF FF FF F3 FF FF
 (000.700065)  can1  18FEDF00   [8]  89 A0 28 7D 7D FF FF F5
 (000.705276)  can1  0CF00300   [8]  D0 7B 31 FF FF 0F 85 82
 (000.705846)  can1  0CF00A00   [8]  65 04 F2 14 FF FF FF FF
 (000.706489)  can1  18FEF000   [8]  FF FF FF 1E 29 FF FF FF
 (000.706975)  can1  0CF00203   [8]  C1 A6 16 FF F7 36 29 03
 (000.707559)  can1  18FEBD00   [8]  00 F0 FF FF FF FF FF FF
 (000.708124)  can1  0CF00C03   [8]  E8 03 83 29 FF FF FF FF
 (000.708704)  can1  18F00E00   [8]  2A 17 FF FF D5 9F FF FF
 (000.709923)  can1  18F03300   [8]  FF FF FF FF FF FF FF FF
 (000.711945)  can1  0CF00400   [8]  11 A5 A5 A9 29 00 0F A5
 (000.714289)  can1  18FECA31   [8]  00 FF 00 00 00 00 FF FF
 (000.714920)  can1  18FCF200   [8]  E1 FF FF FF FF FF FF FF
 (000.716888)  can1  0CF00203   [8]  C1 DE 16 FF F7 63 29 03
 (000.720003)  can1  18FEDF00   [8]  89 A0 28 7D 7D FF FF F5
 (000.720602)  can1  18E0FF00   [8]  00 FF FF FF FF FF FF FF
 (000.721296)  can1  18F00F00   [8]  7C 0F FF FF D5 9F FF FF
 (000.725323)  can1  18FD0700   [8]  03 0C FC FF FF FF FF FF
 (000.725889)  can1  0CF00300   [8]  D0 7B 31 FF FF 0F 85 82
 (000.726466)  can1  18FEF100   [8]  FF 14 1A FC FF 68 00 CF
 (000.727008)  can1  0CF00203   [8]  C1 DE 16 FF F7 63 29 03
 (000.727626)  can1  0CF00C03   [8]  E8 03 01 2A FF FF FF FF
 (000.729957)  can1  18FEEE00   [8]  86 FF FF FF FF FF FF FF
 (000.731952)  can1  0CF00400   [8]  21 A5 A5 21 2A 00 0F A5
 (000.734906)  can1  10FDA300   [8]  FF FF 33 FF FF FF FF FF
 (000.735476)  can1  18F00029   [8]  F0 7D 7D F3 29 FF FF 39
 (000.736897)  can1  0CF00203   [8]  C1 20 17 FF F7 CD 29 03
 (000.739969)  can1  18FEDF00   [8]  89 A0 28 7D 7D FF FF F5
 (000.743886)  can1  18F00131   [8]  FF FF FF 3F 00 FF FF FF
 (000.744469)  can1  18FEF131   [8]  F3 FF FF C3 CC FF FF F0
 (000.745060)  can1  18FEF031   [8]  FF FF FF FF FF FC CC FF
 (000.745628)  can1  18FCDC00   [8]  9F FF FF FF 9C 68 14 1A
 (000.746211)  can1  18FF4831   [8]  00 00 FF FF 00 00 00 00
 (000.746778)  can1  0CF00300   [8]  D0 7B 31 FF FF 0F 82 82
 (000.747353)  can1  0CF00203   [8]  C1 20 17 FF F7 CD 29 03
 (000.747923)  can1  18FEF231   [8]  FF FF FF FF FF FF FF FF
 (000.748488)  can1  0CF00C03   [8]  E8 03 43 2A FF FF FF FF
 (000.749064)  can1  0CF00331   [8]  FF FF FF FF FF FF FF FF
 (000.749682)  can1  0C010305   [8]  FF FF FF FF FF F3 FF FF
 (000.750232)  can1  1CFE9200   [8]  FF 6C BA FF FF FF 54 00
 (000.750800)  can1  18FEF500   [8]  A9 FF FF D6 24 FF FF FF
 (000.752058)  can1  0CF00400   [8]  41 A5 A5 60 2A 00 0F A5
 (000.754894)  can1  14FC9800   [8]  FF 00 00 00 00 00 00 FF
 (000.755507)  can1  0CF00A00   [8]  55 03 7C 16 FF FF FF FF
 (000.756097)  can1  18FD9400   [8]  C9 07 FF FF FF FF FF FF
 (000.756640)  can1  18F00E00   [8]  26 17 FF FF D5 9F FF FF
 (000.757199)  can1  0CF00203   [8]  C1 30 17 FF F7 1D 2A 03
 (000.759953)  can1  18F03300   [8]  FF FF FF FF FF FF FF FF
 (000.760533)  can1  18FEDF00   [8]  89 A0 28 7D 7D FF FF F5
 (000.765256)  can1  18FEE000   [8]  E6 91 00 00 2F FB 34 00
 (000.765830)  can1  0CF00300   [8]  D0 7B 32 FF FF 0F 86 82
 (000.766424)  can1  18FEA400   [8]  FF FF 5F 29 FF FF 0E 2E
 (000.766994)  can1  0CF00203   [8]  C1 30 17 FF F7 1D 2A 03
 (000.767598)  can1  0CF00C03   [8]  E8 03 5E 2A FF FF FF FF
 (000.768268)  can1  18F00503   [8]  7F 12 07 7F 35 20 32 43
 (000.768804)  can1  18FE4A03   [8]  03 0F 4F FF FF F3 FF FF
 (000.770025)  can1  18FDB400   [8]  20 44 E0 3E FF FF FF FF
 (000.770630)  can1  18FEF200   [8]  E0 00 A1 04 7E 09 E1 FF
 (000.771215)  can1  18F00F00   [8]  7C 0F FF FF D5 9F FF FF
 (000.772161)  can1  0CF00400   [8]  51 A6 A5 77 2A 00 0F A6
 (000.776607)  can1  18F0010B   [8]  CF FF F0 FF FF CD FF FF
 (000.777212)  can1  0CF00203   [8]  C1 44 17 FF F7 33 2A 03
 (000.780032)  can1  18FEDF00   [8]  8A A0 28 7D 7D FF FF F5
 (000.780617)  can1  10FCFD00   [8]  FF FF FF FF D3 74 FF FF
 (000.785350)  can1  0CF00300   [8]  D0 7B 32 FF FF 0F 85 82
 (000.786609)  can1  18FEBF0B   [8]  50 1A 7E 7C 7C 80 FF FF
 (000.787169)  can1  0CF00203   [8]  C1 44 17 FF F7 33 2A 03
 (000.787770)  can1  0CF00C03   [8]  E8 03 98 2A FF FF FF FF
 (000.788383)  can1  18F11031   [8]  00 00 FF FF FF FF FF FF
 (000.789977)  can1  18FD7C00   [8]  F8 83 00 00 C3 0F 03 FF
 (000.790573)  can1  18F00100   [8]  FF FF FF FF FF FF FF FF
 (000.792010)  can1  0CF00400   [8]  51 A6 A5 87 2A 00 0F A6
 (000.793975)  can1  0CF00331   [8]  FF FF FF FF FF FF FF FF
 (000.794957)  can1  18FDB300   [8]  FF FF 59 43 FF FF FF FF
 (000.796908)  can1  0CF00203   [8]  C1 7D 17 FF F7 7E 2A 03
 (000.799517)  can1  0C010305   [8]  FF FF FF FF FF F3 FF FF
 (000.800090)  can1  18FEDF00   [8]  8A A0 28 7D 7D FF FF F5
 (000.805339)  can1  0CF00300   [8]  D0 7B 32 FF FF 0F 84 82
 (000.805905)  can1  0CF00A00   [8]  F7 02 1B 17 FF FF FF FF
 (000.806496)  can1  18FEF000   [8]  FF FF FF 92 2A FF FF FF
 (000.807042)  can1  0CF00203   [8]  C5 7D 17 FF F7 7E 2A 03
 (000.807622)  can1  18F00E00   [8]  26 17 FF FF D5 9F FF FF
 (000.808274)  can1  0CF00C03   [8]  E8 03 47 2A FF FF FF FF
 (000.809967)  can1  18F03300   [8]  FF FF FF FF FF FF FF FF
 (000.810544)  can1  18FE9A00   [8]  24 26 FF FF FF FF FF FF
 (000.812019)  can1  0CF00400   [8]  51 A6 A5 48 2A 00 0F A6
 (000.814927)  can1  18FDB200   [8]  FF FF FF FF 12 00 FF FF
 (000.815532)  can1  18FCF200   [8]  E1 FF FF FF FF FF FF FF
 (000.816889)  can1  0CF00203   [8]  C5 66 17 FF F7 59 2A 03
 (000.819939)  can1  18FEDF00   [8]  8A A0 28 7D 7D FF FF F5
 (000.820519)  can1  18F00F00   [8]  7C 0F FF FF D5 9F FF FF
 (000.825372)  can1  0CF00300   [8]  D0 7B 32 FF FF 0F 85 82
 (000.825933)  can1  18FEF100   [8]  FF 88 1A FC FF 68 00 CF
 (000.826962)  can1  0CF00203   [8]  C5 66 17 FF F7 59 2A 03
 (000.831979)  can1  0CF00400   [8]  51 A6 A5 11 2A 00 0F A6
 (000.834866)  can1  10FDA300   [8]  FF FF 37 FF FF FF FF FF
 (000.835463)  can1  18FE9900   [8]  FF FF FF FF FF FF FF FF
 (000.836062)  can1  18F00029   [8]  F0 7D 7D F3 29 FF FF 38
 (000.837011)  can1  0CF00203   [8]  C5 40 17 FF F7 17 2A 03
 (000.839960)  can1  18FD8C00   [8]  FF FF 0F 00 FF FF FF FF
 (000.840541)  can1  18FEDF00   [8]  8A A0 28 7D 7D FF FF F5
 (000.843888)  can1  18F00131   [8]  FF FF FF 3F 00 FF FF FF
 (000.844464)  can1  18FEF131   [8]  F3 FF FF C3 CC FF FF F0
 (000.845056)  can1  18FEF031   [8]  FF FF FF FF FF FC CC FF
 (000.845614)  can1  18FCDC00   [8]  9F FF FF FF 9C 68 88 1A
 (000.846254)  can1  18FF4831   [8]  00 00 FF FF 00 00 00 00
 (000.846781)  can1  0CF00300   [8]  D0 7A 32 FF FF 0F 87 82
 (000.847333)  can1  0CF00203   [8]  C5 40 17 FF F7 17 2A 03
 (000.847916)  can1  18FEF231   [8]  FF FF FF FF FF FF FF FF
 (000.848479)  can1  1CFE9200   [8]  FF B0 BB FF FF FF 58 00
 (000.849056)  can1  0CF00331   [8]  FF FF FF FF FF FF FF FF
 (000.849639)  can1  0C010305   [8]  FF FF FF FF FF F3 FF FF
 (000.852052)  can1  0CF00400   [8]  41 A6 A5 E6 29 00 0F A6
 (000.854914)  can1  0CF00A00   [8]  EE 02 E3 16 FF FF FF FF
 (000.855511)  can1  18FD9400   [8]  63 0A FF FF FF FF FF FF
 (000.856102)  can1  18FEFC00   [8]  FF FF FF FF FF FF FF FF
 (000.856671)  can1  18F00E00   [8]  68 17 FF FF D5 9F FF FF
 (000.857227)  can1  0CF00203   [8]  C5 34 17 FF F7 FB 29 03
 (000.859998)  can1  18FD2000   [8]  60 44 FF FF FF FF FF FF
 (000.860591)  can1  18F03300   [8]  FF FF FF FF FF FF FF FF
 (000.861196)  can1  18FEDF00   [8]  89 A0 28 7D 7D FF FF F5
 (000.865284)  can1  18FEE000   [8]  E6 91 00 00 2F FB 34 00
 (000.865854)  can1  0CF00300   [8]  D0 7A 32 FF FF 0F 87 82
 (000.867007)  can1  0CF00203   [8]  C5 34 17 FF F7 FB 29 03
 (000.867589)  can1  18F00503   [8]  7F 12 07 7F 35 20 32 4C
 (000.868259)  can1  18FE4A03   [8]  03 0F 4F FF FF F3 FF FF
 (000.870029)  can1  18FEF200   [8]  C4 00 69 05 7F 09 E1 FF
 (000.870598)  can1  18F00F00   [8]  7C 0F FF FF D5 9F FF FF
 (000.872072)  can1  0CF00400   [8]  31 A5 A5 C8 29 00 0F A5
 (000.876837)  can1  18F0010B   [8]  CF FF F0 FF FF CD FF FF
 (000.877440)  can1  0CF00203   [8]  C5 21 17 FF F7 EB 29 03
 (000.880036)  can1  18FEDF00   [8]  89 A0 28 7D 7D FF FF F5
 (000.880629)  can1  10FCFD00   [8]  FF FF FF FF 13 71 FF FF
 (000.885351)  can1  18FD3E00   [8]  23 41 FF BC 40 FF FF FF
 (000.885924)  can1  0CF00300   [8]  D0 7A 31 FF FF 0F 88 82
 (000.886855)  can1  18FEBF0B   [8]  A0 1A 7F 7B 7F 7D FF FF
 (000.887410)  can1  0CF00203   [8]  C5 21 17 FF F7 EB 29 03
 (000.890036)  can1  18F00100   [8]  FF FF FF FF FF FF FF FF
 (000.892022)  can1  0CF00400   [8]  21 A5 A5 70 29 00 0F A5
 (000.893975)  can1  0CF00331   [8]  FF FF FF FF FF FF FF FF
 (000.896890)  can1  0CF00203   [8]  C5 10 17 FF F7 A3 29 03
 (000.899515)  can1  0C010305   [8]  FF FF FF FF FF F3 FF FF
 (000.900096)  can1  18FEDF00   [8]  89 A0 28 7D 7D FF FF F5
 (000.905336)  can1  18FD4000   [8]  FF 3F 00 FF FF FF FF FF
 (000.905905)  can1  0CF00300   [8]  D0 7A 31 FF FF 0F 89 82
 (000.906471)  can1  0CF00A00   [8]  0A 03 C7 16 FF FF FF FF
 (000.907031)  can1  0CF00203   [8]  C5 10 17 FF F7 A3 29 03
 (000.907623)  can1  18FEF000   [8]  FF FF FF AD 29 FF FF FF
 (000.908279)  can1  0CF00C03   [8]  E8 03 A0 29 FF FF FF FF
 (000.908756)  can1  18F00E00   [8]  8A 17 FF FF D5 9F FF FF
 (000.909339)  can1  18FECA00   [8]  03 FF 00 00 00 00 FF FF
 (000.909974)  can1  18F03300   [8]  FF FF FF FF FF FF FF FF
 (000.911941)  can1  0CF00400   [8]  11 A5 A5 90 29 00 0F A5
 (000.914928)  can1  18FCF200   [8]  E1 FF FF FF FF FF FF FF
 (000.916898)  can1  0CF00203   [8]  C5 F2 16 FF F7 86 29 03
 (000.920018)  can1  18FEDF00   [8]  89 A0 28 7D 7D FF FF F5
 (000.920608)  can1  18F00F00   [8]  7C 0F FF FF D5 9F FF FF
 (000.925377)  can1  0CF00300   [8]  D0 7A 31 FF FF 0F 88 82
 (000.925936)  can1  18FEF100   [8]  FF 98 1A FC FF 68 00 CF
 (000.926968)  can1  0CF00203   [8]  C5 F2 16 FF F7 86 29 03
 (000.930054)  can1  18FCC500   [8]  23 41 FF FF FF FF FF FF
 (000.930631)  can1  0CFD9200   [8]  F4 FF FF FF FF FF FF FF
 (000.932061)  can1  0CF00400   [8]  71 A5 A4 9F 29 00 0F A5
 (000.934966)  can1  10FDA300   [8]  FF FF 31 FF FF FF FF FF
 (000.935535)  can1  18F00029   [8]  F0 7D 7D F3 29 FF FF 38
 (000.936933)  can1  0CF00203   [8]  C5 EF 16 FF F7 A9 29 03
 (000.939960)  can1  18FEDF00   [8]  89 A0 28 7D 7D FF FF F5
 (000.943891)  can1  18F00131   [8]  FF FF FF 3F 00 FF FF FF
 (000.944486)  can1  18E0FF31   [8]  00 FF FF FF FF F0 FF FF
 (000.945129)  can1  18FEF131   [8]  F3 FF FF C3 CC FF FF F0
 (000.945636)  can1  18FCDC00   [8]  9F FF FF FF 9C 68 98 1A
 (000.946206)  can1  18FEF031   [8]  FF FF FF FF FF FC CC FF
 (000.946790)  can1  0CF00300   [8]  D0 7A 31 FF FF 0F 8A 82
 (000.947315)  can1  0CF00203   [8]  C5 EF 16 FF F7 A9 29 03
 (000.947889)  can1  18FEFC31   [8]  FF B1 FF FF FF FF 00 FF
 (000.948446)  can1  1CFE9200   [8]  FF B4 B6 FF FF FF 56 00
 (000.949035)  can1  18FEAE31   [8]  FF FF 60 60 FF FF FF FF
 (000.949615)  can1  0C010305   [8]  FF FF FF FF FF F3 FF FF
 (000.950196)  can1  18FEF731   [8]  FF FF FF FF 19 01 FF FF
 (000.950792)  can1  18FF4831   [8]  00 00 FF FF 00 00 00 00
 (000.951385)  can1  18FD8331   [8]  F8 FF FF FF FF FF FF FF
 (000.951983)  can1  18FEF831   [8]  FF FF FF FF FF FF FF FF
 (000.952542)  can1  0CF00400   [8]  71 A5 A4 C2 29 00 0F A5
 (000.953115)  can1  18FEF231   [8]  FF FF FF FF FF FF FF FF
 (000.953711)  can1  18FEFA31   [8]  FF BF BF FF FF FF FF FF
 (000.954308)  can1  18FEC131   [8]  AB 87 2C 05 FF FF FF FF
 (000.954895)  can1  0CF00331   [8]  FF FF FF FF FF FF FF FF
 (000.955468)  can1  0CF00A00   [8]  0A 03 D0 16 FF FF FF FF
 (000.956051)  can1  18FD9400   [8]  FD 0C FF FF FF FF FF FF
 (000.956697)  can1  18FEEF00   [8]  FF FF FF 3C A1 7D FF FA
 (000.957170)  can1  0CF00203   [8]  C5 FA 16 FF F7 99 29 03
 (000.957739)  can1  18F00E00   [8]  C6 17 FF FF D5 9F FF FF
 (000.960043)  can1  18F03300   [8]  FF FF FF FF FF FF FF FF
 (000.960620)  can1  18FEDF00   [8]  89 A0 28 7D 7D FF FF F5
 (000.965328)  can1  18FEE000   [8]  E6 91 00 00 2F FB 34 00
 (000.965892)  can1  0CF00300   [8]  D0 7A 31 FF FF 0F 89 82
 (000.967030)  can1  0CF00203   [8]  C5 FA 16 FF F7 99 29 03
 (000.967583)  can1  18F00503   [8]  7F 12 07 7F 35 20 32 4C
 (000.968244)  can1  18FE4A03   [8]  03 0F 4F FF FF F3 FF FF
 (000.970021)  can1  18FEF200   [8]  EB 00 87 04 7E 09 E1 FF
 (000.970617)  can1  18F00F00   [8]  7C 0F FF FF D5 9F FF FF
 (000.972035)  can1  0CF00400   [8]  61 A5 A4 01 2A 00 0F A5
 (000.974955)  can1  18FEDB00   [8]  FF FF BA 6F FF FF FF FF
 (000.976913)  can1  0CF00203   [8]  C5 35 17 FF F7 F4 29 03
 (000.977469)  can1  18F0010B   [8]  CF FF F0 FF FF CD FF FF
 (000.980086)  can1  18FEDF00   [8]  89 A0 28 7D 7D FF FF F5
 (000.980677)  can1  10FCFD00   [8]  FF FF FF FF 40 71 FF FF
 (000.985316)  can1  0CF00300   [8]  D0 79 31 FF FF 0F 88 82
 (000.986895)  can1  0CF00203   [8]  C5 35 17 FF F7 F4 29 03
 (000.987461)  can1  18FEBF0B   [8]  D0 1A 7C 7E 7A 7C FF FF
 (000.990046)  can1  18F00100   [8]  FF FF FF FF FF FF FF FF
 (000.991971)  can1  0CF00400   [8]  31 A4 A4 24 2A 00 0F A4
 (000.993973)  can1  0CF00331   [8]  FF FF FF FF FF FF FF FF
 (000.994993)  can1  18FEF600   [8]  FF 17 61 FF FF FF FF FF
 (000.996911)  can1  0CF00203   [8]  C5 27 17 FF F7 F9 29 03
 (000.999524)  can1  0C010305   [8]  FF FF FF FF FF F3 FF FF
 (001.000109)  can1  18FEDF00   [8]  89 A0 28 7D 7D FF FF F5
 (001.005331)  can1  0CF00300   [8]  D0 78 30 FF FF 0F 88 82
 (001.005897)  can1  0CF00A00   [8]  B2 03 3A 16 FF FF FF FF
 (001.006481)  can1  18FEF000   [8]  FF FF FF EF 29 FF FF FF
 (001.007040)  can1  0CF00203   [8]  C5 27 17 FF F7 F9 29 03
 (001.007623)  can1  18F00E00   [8]  1E 18 FF FF D5 9F FF FF
 (001.008271)  can1  0CF00C03   [8]  E8 03 37 2A FF FF FF FF
 (001.010002)  can1  18F03300   [8]  FF FF FF FF FF FF FF FF
 (001.012007)  can1  0CF00400   [8]  11 A4 A4 63 2A 00 0F A4
 (001.014907)  can1  18FCF200   [8]  E1 FF FF FF FF FF FF FF
 (001.016895)  can1  0CF00203   [8]  C5 3D 17 FF F7 2D 2A 03
 (001.020021)  can1  18FEDF00   [8]  89 A0 28 7D 7D FF FF F5
 (001.020614)  can1  18FDC600   [8]  FC 04 FF FF FF FF FF FF
 (001.021214)  can1  18F00F00   [8]  7C 0F FF FF D5 9F FF FF
 (001.025422)  can1  0CF00300   [8]  D0 77 30 FF FF 0F 87 82
 (001.025961)  can1  18FEF100   [8]  FF 9C 1A FC FF 68 00 CF
 (001.026951)  can1  0CF00203   [8]  C5 3D 17 FF F7 2D 2A 03
 (001.031983)  can1  0CF00400   [8]  71 A4 A3 9C 2A 00 0F A4
 (001.034950)  can1  10FDA300   [8]  FF FF 31 FF FF FF FF FF
 (001.035528)  can1  18F00029   [8]  F0 7D 7D F3 29 FF FF 38
 (001.036917)  can1  0CF00203   [8]  C5 76 17 FF F7 75 2A 03
 (001.040008)  can1  18FEDF00   [8]  89 A0 28 7D 7D FF FF F5
 (001.043888)  can1  18F00131   [8]  FF FF FF 3F 00 FF FF FF
 (001.044472)  can1  18FEF131   [8]  F3 FF FF C3 CC FF FF F0
 (001.045162)  can1  18FEF031   [8]  FF FF FF FF FF FC CC FF
 (001.045627)  can1  18FCDC00   [8]  9F FF FF FF 9C 68 9C 1A
 (001.046288)  can1  18FF4831   [8]  00 00 FF FF 00 00 00 00
 (001.046773)  can1  0CF00300   [8]  D0 77 30 FF FF 0F 85 82
 (001.047334)  can1  0CF00203   [8]  C5 76 17 FF F7 75 2A 03
 (001.047904)  can1  18FEF231   [8]  FF FF FF FF FF FF FF FF
 (001.048501)  can1  1CFE9200   [8]  FF B0 B9 FF FF FF 54 00
 (001.049052)  can1  0CF00331   [8]  FF FF FF FF FF FF FF FF
 (001.049641)  can1  0C010305   [8]  FF FF FF FF FF F3 FF FF
 (001.052112)  can1  0CF00400   [8]  61 A4 A3 DD 2A 00 0F A4
 (001.054937)  can1  0CF00A00   [8]  EB 03 56 16 FF FF FF FF
 (001.055530)  can1  18FD9400   [8]  63 0A FF FF FF FF FF FF
 (001.056099)  can1  18F00E00   [8]  1A 19 FF FF D5 9F FF FF
 (001.056894)  can1  0CF00203   [8]  C5 91 17 FF F7 AF 2A 03
 (001.060001)  can1  18F03300   [8]  FF FF FF FF FF FF FF FF
 (001.060582)  can1  18FEDF00   [8]  89 A0 28 7D 7D FF FF F5
 (001.065311)  can1  18FEE000   [8]  E6 91 00 00 2F FB 34 00
 (001.065882)  can1  0CF00300   [8]  D0 76 2F FF FF 0F 84 82
 (001.067103)  can1  0CF00203   [8]  C5 91 17 FF F7 AF 2A 03
 (001.067571)  can1  18F00503   [8]  7F 12 07 7F 35 20 32 4C
 (001.068258)  can1  18FE4A03   [8]  03 0F 4F FF FF F3 FF FF
 (001.070060)  can1  18FEF200   [8]  E6 00 9F 04 7E 09 E1 FF
 (001.070647)  can1  18F00F00   [8]  7C 0F FF FF D5 9F FF FF
 (001.072099)  can1  0CF00400   [8]  51 A4 A3 A3 2A 00 0F A4
 (001.076890)  can1  0CF00203   [8]  C5 9D 17 FF F7 B9 2A 03
 (001.077461)  can1  18F0010B   [8]  CF FF F0 FF FF CD FF FF
 (001.080057)  can1  18FEDF00   [8]  89 A0 28 7D 7D FF FF F5
 (001.080646)  can1  10FCFD00   [8]  FF FF FF FF 73 73 FF FF
 (001.085392)  can1  0CF00300   [8]  D0 76 2F FF FF 0F 85 82
 (001.086887)  can1  0CF00203   [8]  C5 9D 17 FF F7 B9 2A 03
 (001.087458)  can1  18FEBF0B   [8]  00 1B 7F 7B 7B 77 FF FF
 (001.090042)  can1  18F00100   [8]  FF FF FF FF FF FF FF FF
 (001.092019)  can1  0CF00400   [8]  51 A4 A3 99 2A 00 0F A4
 (001.093981)  can1  0CF00331   [8]  FF FF FF FF FF FF FF FF
 (001.096906)  can1  0CF00203   [8]  C5 81 17 FF F7 99 2A 03
 (001.099512)  can1  0C010305   [8]  FF FF FF FF FF F3 FF FF
 (001.100094)  can1  18FEDF00   [8]  89 A0 28 7D 7D FF FF F5
 (001.105350)  can1  0CF00300   [8]  D0 76 2F FF FF 0F 84 82
 (001.105918)  can1  0CF00A00   [8]  FD 03 1E 16 FF FF FF FF
 (001.106494)  can1  18FEF000   [8]  FF FF FF A6 2A FF FF FF
 (001.107049)  can1  0CF00203   [8]  C5 81 17 FF F7 99 2A 03
 (001.107707)  can1  18F00E00   [8]  D0 19 FF FF D5 9F FF FF
 (001.108250)  can1  0CF00C03   [8]  E8 03 5A 2A FF FF FF FF
 (001.110052)  can1  18F03300   [8]  FF FF FF FF FF FF FF FF
 (001.112032)  can1  0CF00400   [8]  71 A4 A3 7D 2A 00 0F A4
 (001.114972)  can1  18FCF200   [8]  E1 FF FF FF FF FF FF FF
 (001.116920)  can1  0CF00203   [8]  C5 84 17 FF F7 98 2A 03
 (001.120029)  can1  18FEDF00   [8]  89 A0 28 7D 7D FF FF F5
 (001.120613)  can1  18F00F00   [8]  7C 0F FF FF D5 9F FF FF
 (001.125384)  can1  0CF00300   [8]  D0 77 2F FF FF 0F 85 82
 (001.125951)  can1  18FEF100   [8]  FF F8 1A FC FF 68 00 CF
 (001.126965)  can1  0CF00203   [8]  C5 84 17 FF F7 98 2A 03
 (001.132003)  can1  0CF00400   [8]  01 A4 A4 77 2A 00 0F A4
 (001.134971)  can1  10FDA300   [8]  FF FF 33 FF FF FF FF FF
 (001.135549)  can1  18F00029   [8]  F0 7D 7D F3 29 FF FF 38
 (001.136904)  can1  0CF00203   [8]  C5 80 17 FF F7 7A 2A 03
 (001.140028)  can1  18FEDF00   [8]  89 A0 28 7D 7D FF FF F5
 (001.143943)  can1  18F00131   [8]  FF FF FF 3F 00 FF FF FF
 (001.144478)  can1  18FEF131   [8]  F3 FF FF C3 CC FF FF F0
 (001.145067)  can1  18FEF031   [8]  FF FF FF FF FF FC CC FF
 (001.145647)  can1  18FCDC00   [8]  9F FF FF FF 9C 68 F8 1A
 (001.146228)  can1  18FF4831   [8]  00 00 FF FF 00 00 00 00
 (001.146819)  can1  0CF00300   [8]  D0 77 30 FF FF 0F 85 82
 (001.147353)  can1  0CF00203   [8]  C5 80 17 FF F7 7A 2A 03
 (001.147936)  can1  18FEF231   [8]  FF FF FF FF FF FF FF FF
 (001.148506)  can1  1CFE9200   [8]  FF E4 BA FF FF FF 52 00
 (001.149069)  can1  0CF00331   [8]  FF FF FF FF FF FF FF FF
 (001.149655)  can1  0C010305   [8]  FF FF FF FF FF F3 FF FF
 (001.152087)  can1  0CF00400   [8]  11 A4 A4 63 2A 00 0F A4
 (001.154935)  can1  0CF00A00   [8]  23 04 E6 15 FF FF FF FF
 (001.155538)  can1  18FD9400   [8]  FD 0C FF FF FF FF FF FF
 (001.156098)  can1  18F00E00   [8]  68 1A FF FF D5 9F FF FF
 (001.156895)  can1  0CF00203   [8]  C5 7A 17 FF F7 80 2A 03
 (001.160036)  can1  18F03300   [8]  FF FF FF FF FF FF FF FF
 (001.160626)  can1  18FEDF00   [8]  89 A0 28 7D 7D FF FF F5
 (001.165345)  can1  18FEE000   [8]  E6 91 00 00 2F FB 34 00
 (001.165964)  can1  0CF00300   [8]  D0 78 30 FF FF 0F 85 82
 (001.166969)  can1  0CF00203   [8]  C5 7A 17 FF F7 80 2A 03
 (001.167571)  can1  18F00503   [8]  7F 12 07 7F 35 20 32 4C
 (001.168241)  can1  18FE4A03   [8]  03 0F 4F FF FF F3 FF FF
 (001.170061)  can1  18FEF200   [8]  C1 00 8D 05 7F 09 E1 FF
 (001.170642)  can1  18F00F00   [8]  7C 0F FF FF D5 9F FF FF
 (001.172128)  can1  0CF00400   [8]  11 A4 A4 80 2A 00 0F A4
 (001.176896)  can1  0CF00203   [8]  C5 6B 17 FF F7 80 2A 03
 (001.177633)  can1  18F0010B   [8]  CF FF F0 FF FF CD FF FF
 (001.180078)  can1  18FEDF00   [8]  89 A0 28 7D 7D FF FF F5
 (001.180665)  can1  10FCFD00   [8]  FF FF FF FF 39 72 FF FF
 (001.181278)  can1  0CFD9200   [8]  F4 FF FF FF FF FF FF FF
 (001.185421)  can1  0CF00300   [8]  D0 78 30 FF FF 0F 84 82
 (001.186891)  can1  0CF00203   [8]  C5 6B 17 FF F7 80 2A 03
 (001.187633)  can1  18FEBF0B   [8]  20 1B 7F 7B 7F 7B FF FF
 (001.190071)  can1  18F00100   [8]  FF FF FF FF FF FF FF FF
 (001.192073)  can1  0CF00400   [8]  11 A4 A4 B4 2A 00 0F A4
 (001.193980)  can1  0CF00331   [8]  FF FF FF FF FF FF FF FF
 (001.196914)  can1  0CF00203   [8]  C5 80 17 FF F7 92 2A 03
 (001.199556)  can1  0C010305   [8]  FF FF FF FF FF F3 FF FF
 (001.200137)  can1  18FEDF00   [8]  89 A0 28 7D 7D FF FF F5
 (001.205361)  can1  0CF00300   [8]  D0 78 30 FF FF 0F 84 82
 (001.205939)  can1  0CF00A00   [8]  2C 04 DC 15 FF FF FF FF
 (001.206566)  can1  18FEF000   [8]  FF FF FF 99 2A FF FF FF
 (001.207081)  can1  0CF00203   [8]  C5 80 17 FF F7 92 2A 03
 (001.207668)  can1  18F00E00   [8]  5C 1B FF FF D5 9F FF FF
 (001.208316)  can1  0CF00C03   [8]  E8 03 EC 2A FF FF FF FF
 (001.210062)  can1  18F03300   [8]  FF FF FF FF FF FF FF FF
 (001.212033)  can1  0CF00400   [8]  01 A4 A4 EA 2A 00 0F A4
 (001.214945)  can1  18FCF200   [8]  E1 FF FF FF FF FF FF FF
 (001.216903)  can1  0CF00203   [8]  C5 A7 17 FF F7 C5 2A 03
 (001.220021)  can1  18FEDF00   [8]  89 A0 28 7D 7D FF FF F5
 (001.220610)  can1  18F00F00   [8]  7C 0F FF FF D5 9F FF FF
 (001.225476)  can1  0CF00300   [8]  D0 78 30 FF FF 0F 83 82
 (001.226024)  can1  18FEF100   [8]  FF 0C 1B FC FF 68 00 CF
 (001.226958)  can1  0CF00203   [8]  C5 A7 17 FF F7 C5 2A 03
 (001.232044)  can1  0CF00400   [8]  11 A4 A4 46 2B 00 0F A4
 (001.234985)  can1  10FDA300   [8]  FF FF 2F FF FF FF FF FF
 (001.235583)  can1  18F00029   [8]  F0 7D 7D F3 29 FF FF 38
 (001.236951)  can1  0CF00203   [8]  C5 CB 17 FF F7 24 2B 03
 (001.240038)  can1  18FEDF00   [8]  89 A0 28 7D 7D FF FF F5
 (001.243893)  can1  18F00131   [8]  FF FF FF 3F 00 FF FF FF
 (001.244479)  can1  18FEF131   [8]  F3 FF FF C3 CC FF FF F0
 (001.245165)  can1  18FEF031   [8]  FF FF FF FF FF FC CC FF
 (001.245640)  can1  18FCDC00   [8]  9F FF FF FF 9C 68 0C 1B
 (001.246222)  can1  18FF4831   [8]  00 00 FF FF 00 00 00 00
 (001.246798)  can1  0CF00300   [8]  D0 78 30 FF FF 0F 82 82
 (001.247343)  can1  0CF00203   [8]  C5 CB 17 FF F7 24 2B 03
 (001.247932)  can1  18FEF231   [8]  FF FF FF FF FF FF FF FF
 (001.248525)  can1  1CFE9200   [8]  FF 38 B9 FF FF FF 54 00
 (001.249071)  can1  0CF00331   [8]  FF FF FF FF FF FF FF FF
 (001.249669)  can1  0C010305   [8]  FF FF FF FF FF F3 FF FF
 (001.252155)  can1  0CF00400   [8]  01 A4 A4 4A 2B 00 0F A4
 (001.254968)  can1  14FC9800   [8]  FF 00 00 00 00 00 00 FF
 (001.255567)  can1  0CF00A00   [8]  93 04 02 16 FF FF FF FF
 (001.256141)  can1  18FD9400   [8]  FD 0C FF FF FF FF FF FF
 (001.256733)  can1  18F00E00   [8]  D2 1B FF FF D5 9F FF FF
 (001.257272)  can1  0CF00203   [8]  C5 C8 17 FF F7 1F 2B 03
 (001.260057)  can1  18F03300   [8]  FF FF FF FF FF FF FF FF
 (001.260635)  can1  18FEDF00   [8]  89 A0 28 7D 7D FF FF F5
 (001.265367)  can1  18FEE000   [8]  E6 91 00 00 2F FB 34 00
 (001.265927)  can1  0CF00300   [8]  D0 78 30 FF FF 0F 82 82
 (001.267005)  can1  0CF00203   [8]  C5 C8 17 FF F7 1F 2B 03
 (001.267591)  can1  18F00503   [8]  7F 12 07 7F 35 20 32 4C
 (001.268274)  can1  18FE4A03   [8]  03 0F 4F FF FF F3 FF FF
 (001.270083)  can1  18FDB400   [8]  8C 44 F9 3E FF FF FF FF
 (001.270681)  can1  18FEF200   [8]  DF 00 D8 04 7E 09 E1 FF
 (001.271260)  can1  18F00F00   [8]  7C 0F FF FF D5 9F FF FF
 (001.272350)  can1  0CF00400   [8]  11 A4 A4 58 2B 00 0F A4
 (001.276929)  can1  0CF00203   [8]  C5 E5 17 FF F7 44 2B 03
 (001.277937)  can1  18F0010B   [8]  CF FF F0 FF FF CD FF FF
 (001.280114)  can1  18FEDF00   [8]  89 A0 28 7D 7D FF FF F5
 (001.280706)  can1  10FCFD00   [8]  FF FF FF FF 09 77 FF FF
 (001.285375)  can1  0CF00300   [8]  D0 78 30 FF FF 0F 81 82
 (001.286893)  can1  0CF00203   [8]  C5 E5 17 FF F7 44 2B 03
 (001.287869)  can1  18FEBF0B   [8]  30 1B 7E 7C 80 7E FF FF
 (001.290045)  can1  18F00100   [8]  FF FF FF FF FF FF FF FF
 (001.292032)  can1  0CF00400   [8]  21 A4 A4 63 2B 00 0F A4
 (001.293992)  can1  0CF00331   [8]  FF FF FF FF FF FF FF FF
 (001.295010)  can1  18FDB300   [8]  FF FF 76 43 FF FF FF FF
 (001.296908)  can1  0CF00203   [8]  C5 F4 17 FF F7 51 2B 03
 (001.299562)  can1  0C010305   [8]  FF FF FF FF FF F3 FF FF
 (001.300144)  can1  18FEDF00   [8]  89 A0 28 7D 7D FF FF F5
 (001.305414)  can1  0CF00300   [8]  D0 78 30 FF FF 0F 81 82
 (001.305979)  can1  0CF00A00   [8]  93 04 0B 16 FF FF FF FF
 (001.306557)  can1  18FEF000   [8]  FF FF FF 70 2B FF FF FF
 (001.307117)  can1  0CF00203   [8]  C5 F4 17 FF F7 51 2B 03
 (001.307694)  can1  18F00E00   [8]  24 1D FF FF D5 9F FF FF
 (001.308278)  can1  0CF00C03   [8]  E8 03 8E 2B FF FF FF FF
 (001.310041)  can1  18F03300   [8]  FF FF FF FF FF FF FF FF
 (001.312137)  can1  0CF00400   [8]  21 A4 A4 77 2B 00 0F A4
 (001.314988)  can1  18FDB200   [8]  FF FF FF FF 12 00 FF FF
 (001.315578)  can1  18FCF200   [8]  E1 FF FF FF FF FF FF FF
 (001.316899)  can1  0CF00203   [8]  C5 EE 17 FF F7 5E 2B 03
 (001.320059)  can1  18FEDF00   [8]  89 A0 28 7D 7D FF FF F5
 (001.320644)  can1  18F00F00   [8]  7C 0F FF FF D5 9F FF FF
 (001.325446)  can1  0CF00300   [8]  D0 78 30 FF FF 0F 80 82
 (001.325987)  can1  18FEF100   [8]  FF 64 1B FC FF 68 00 CF
 (001.326962)  can1  0CF00203   [8]  C5 EE 17 FF F7 5E 2B 03
 (001.332102)  can1  0CF00400   [8]  31 A4 A4 10 2B 00 0F A4
 (001.334995)  can1  10FDA300   [8]  FF FF 2F FF FF FF FF FF
 (001.335570)  can1  18F00029   [8]  F0 7D 7D F3 29 FF FF 38
 (001.336917)  can1  0CF00203   [8]  C5 E7 17 FF F7 51 2B 03
 (001.340055)  can1  18FD8C00   [8]  FF FF 0E 00 FF FF FF FF
 (001.340630)  can1  18FEDF00   [8]  8A A0 28 7D 7D FF FF F5
 (001.343909)  can1  18F00131   [8]  FF FF FF 3F 00 FF FF FF
 (001.344490)  can1  18FEF131   [8]  F3 FF FF C3 CC FF FF F0
 (001.345085)  can1  18FEF031   [8]  FF FF FF FF FF FC CC FF
 (001.345715)  can1  18FCDC00   [8]  9F FF FF FF 9C 68 64 1B
 (001.346224)  can1  18FF4831   [8]  00 00 FF FF 00 00 00 00
 (001.346798)  can1  0CF00300   [8]  D0 78 30 FF FF 0F 81 82
 (001.347358)  can1  0CF00203   [8]  C5 E7 17 FF F7 51 2B 03
 (001.347922)  can1  18FEF231   [8]  FF FF FF FF FF FF FF FF
 (001.348511)  can1  18FECA03   [8]  00 FF 00 00 00 00 FF FF
 (001.349086)  can1  0CF00331   [8]  FF FF FF FF FF FF FF FF
 (001.349754)  can1  0C010305   [8]  FF FF FF FF FF F3 FF FF
 (001.350236)  can1  1CFE9200   [8]  FF 54 BC FF FF FF 56 00
 (001.352329)  can1  0CF00400   [8]  31 A4 A4 1D 2B 00 0F A4
 (001.355000)  can1  0CF00A00   [8]  E8 04 6C 15 FF FF FF FF
 (001.355595)  can1  18FD9400   [8]  96 0F FF FF FF FF FF FF
 (001.356167)  can1  18F00E00   [8]  DA 1D FF FF D5 9F FF FF
 (001.356949)  can1  0CF00203   [8]  C5 D2 17 FF F7 19 2B 03
 (001.360054)  can1  18FD2000   [8]  8C 44 FF FF FF FF FF FF
 (001.360678)  can1  18F03300   [8]  FF FF FF FF FF FF FF FF
 (001.361212)  can1  18FEDF00   [8]  8A A0 28 7D 7D FF FF F5
 (001.365420)  can1  18FEE000   [8]  E6 91 00 00 2F FB 34 00
 (001.365981)  can1  0CF00300   [8]  D0 77 30 FF FF 0F 80 82
 (001.366993)  can1  0CF00203   [8]  C5 D2 17 FF F7 19 2B 03
 (001.367576)  can1  18F00503   [8]  7F 12 07 7F 35 20 32 4C
 (001.368254)  can1  18FE4A03   [8]  03 0F 4F FF FF F3 FF FF
 (001.370090)  can1  18FEF200   [8]  E2 00 D4 04 7E 09 E1 FF
 (001.370677)  can1  18F00F00   [8]  7C 0F FF FF D5 9F FF FF
 (001.372140)  can1  0CF00400   [8]  11 A4 A4 20 2B 00 0F A4
 (001.376895)  can1  0CF00203   [8]  C5 D7 17 FF F7 24 2B 03
 (001.378069)  can1  18F0010B   [8]  CF FF F0 FF FF CD FF FF
 (001.380128)  can1  18FEDF00   [8]  8A A0 28 7D 7D FF FF F5
 (001.380726)  can1  10FCFD00   [8]  FF FF FF FF C3 75 FF FF
 (001.385385)  can1  18FD3E00   [8]  26 41 FF C3 40 FF FF FF
 (001.385946)  can1  0CF00300   [8]  D0 77 30 FF FF 0F 81 82
 (001.387081)  can1  0CF00203   [8]  C5 D7 17 FF F7 24 2B 03
 (001.388106)  can1  18FEBF0B   [8]  70 1B 7E 7C 7E 7E FF FF
 (001.390108)  can1  18F00100   [8]  FF FF FF FF FF FF FF FF
 (001.392051)  can1  0CF00400   [8]  11 A4 A4 28 2B 00 0F A4
 (001.393986)  can1  0CF00331   [8]  FF FF FF FF FF FF FF FF
 (001.396904)  can1  0CF00203   [8]  C5 C9 17 FF F7 1E 2B 03
 (001.399545)  can1  0C010305   [8]  FF FF FF FF FF F3 FF FF
 (001.400123)  can1  18FEDF00   [8]  8A A0 28 7D 7D FF FF F5
 (001.405443)  can1  18FD4000   [8]  FF 3F 00 FF FF FF FF FF
 (001.406002)  can1  0CF00300   [8]  D0 77 30 FF FF 0F 7F 82
 (001.406574)  can1  0CF00A00   [8]  E8 04 46 15 FF FF FF FF
 (001.407181)  can1  0CF00203   [8]  C5 C9 17 FF F7 1E 2B 03
 (001.407757)  can1  18FEF000   [8]  FF FF FF 17 2B FF FF FF
 (001.408268)  can1  0CF00C03   [8]  E8 03 51 2B FF FF FF FF
 (001.408849)  can1  18F00E00   [8]  FC 1E FF FF D5 9F FF FF
 (001.410079)  can1  18F03300   [8]  FF FF FF FF FF FF FF FF
 (001.412061)  can1  0CF00400   [8]  11 A4 A4 25 2B 00 0F A4
 (001.415017)  can1  18FCF200   [8]  E1 FF FF FF FF FF FF FF
 (001.416908)  can1  0CF00203   [8]  C5 D8 17 FF F7 39 2B 03
 (001.420069)  can1  18FEDF00   [8]  8A A0 28 7D 7D FF FF F5
 (001.420657)  can1  18F00F00   [8]  7C 0F FF FF D5 9F FF FF
 (001.425429)  can1  0CF00300   [8]  D0 77 30 FF FF 0F 7F 82
 (001.426023)  can1  18FEF100   [8]  FF 6C 1B FC FF 68 00 CF
 (001.426966)  can1  0CF00203   [8]  C5 D8 17 FF F7 39 2B 03
 (001.430107)  can1  18FCC500   [8]  26 41 FF FF FF FF FF FF
 (001.430697)  can1  0CFD9200   [8]  F4 FF FF FF FF FF FF FF
 (001.432308)  can1  0CF00400   [8]  01 A4 A4 43 2B 00 0F A4
 (001.435022)  can1  10FDA300   [8]  FF FF 2F FF FF FF FF FF
 (001.435594)  can1  18F00029   [8]  F0 7D 7D F3 29 FF FF 38
 (001.436938)  can1  0CF00203   [8]  C5 E4 17 FF F7 39 2B 03
 (001.440072)  can1  18FEDF00   [8]  8A A0 28 7D 7D FF FF F5
 (001.443900)  can1  18F00131   [8]  FF FF FF 3F 00 FF FF FF
 (001.444484)  can1  18FEF131   [8]  F3 FF FF C3 CC FF FF F0
 (001.445067)  can1  18FEF031   [8]  FF FF FF FF FF FC CC FF
 (001.445649)  can1  18FCDC00   [8]  9F FF FF FF 9C 68 6C 1B
 (001.446244)  can1  18FF4831   [8]  00 00 FF FF 00 00 00 00
 (001.446787)  can1  0CF00300   [8]  D0 77 30 FF FF 0F 7E 82
 (001.447342)  can1  0CF00203   [8]  C5 E4 17 FF F7 39 2B 03
 (001.447909)  can1  18FEF231   [8]  FF FF FF FF FF FF FF FF
 (001.448506)  can1  1CFE9200   [8]  FF 80 BC FF FF FF 54 00
 (001.449080)  can1  0CF00331   [8]  FF FF FF FF FF FF FF FF
 (001.449669)  can1  0C010305   [8]  FF FF FF FF FF F3 FF FF
 (001.452240)  can1  0CF00400   [8]  71 A4 A3 57 2B 00 0F A4
 (001.454988)  can1  0CF00A00   [8]  46 05 F2 14 FF FF FF FF
 (001.455606)  can1  18FD9400   [8]  FD 0C FF FF FF FF FF FF
 (001.456134)  can1  18FEEF00   [8]  FF FF FF 3F 91 7D FF FA
 (001.456716)  can1  18F00E00   [8]  1A 20 FF FF D5 9F FF FF
 (001.457286)  can1  0CF00203   [8]  C5 EE 17 FF F7 4D 2B 03
 (001.460043)  can1  18F03300   [8]  FF FF FF FF FF FF FF FF
 (001.460628)  can1  18FEDF00   [8]  8A A0 28 7D 7D FF FF F5
 (001.465383)  can1  18FEE000   [8]  E6 91 00 00 2F FB 34 00
 (001.465976)  can1  0CF00300   [8]  D0 77 2F FF FF 0F 7E 82
 (001.467090)  can1  0CF00203   [8]  C5 EE 17 FF F7 4D 2B 03
 (001.467582)  can1  18F00503   [8]  7F 12 07 7F 35 20 32 4C
 (001.468258)  can1  18FE4A03   [8]  03 0F 4F FF FF F3 FF FF
 (001.470111)  can1  18FEF200   [8]  E4 00 CD 04 7F 09 E1 FF
 (001.470697)  can1  18F00F00   [8]  7C 0F FF FF D5 9F FF FF
 (001.472161)  can1  0CF00400   [8]  01 A4 A4 3F 2B 00 0F A4
 (001.475093)  can1  18FEDB00   [8]  FF FF 5A 74 FF FF FF FF
 (001.476900)  can1  0CF00203   [8]  C5 E9 17 FF F7 49 2B 03
 (001.478340)  can1  18F0010B   [8]  CF FF F0 FF FF CD FF FF
 (001.480140)  can1  18FEDF00   [8]  8A A0 28 7D 7D FF FF F5
 (001.480755)  can1  10FCFD00   [8]  FF FF FF FF BC 76 FF FF
 (001.485452)  can1  0CF00300   [8]  D0 77 30 FF FF 0F 7D 82
 (001.486897)  can1  0CF00203   [8]  C5 E9 17 FF F7 49 2B 03
 (001.488347)  can1  18FEBF0B   [8]  80 1B 7F 7B 81 7D FF FF
 (001.490120)  can1  18F00100   [8]  FF FF FF FF FF FF FF FF
 (001.492135)  can1  0CF00400   [8]  01 A4 A4 8A 2B 00 0F A4
 (001.493996)  can1  0CF00331   [8]  FF FF FF FF FF FF FF FF
 (001.495059)  can1  18FEF600   [8]  FF 15 60 FF FF FF FF FF
 (001.496895)  can1  0CF00203   [8]  C5 F3 17 FF F7 79 2B 03
 (001.499562)  can1  0C010305   [8]  FF FF FF FF FF F3 FF FF
 (001.500138)  can1  18FEDF00   [8]  8A A0 28 7D 7D FF FF F5
 (001.505453)  can1  0CF00300   [8]  D0 77 2F FF FF 0F 7D 82
 (001.506027)  can1  0CF00A00   [8]  17 05 34 15 FF FF FF FF
 (001.506609)  can1  18FEF000   [8]  FF FF FF 6F 2B FF FF FF
 (001.507157)  can1  0CF00203   [8]  C5 F3 17 FF F7 79 2B 03
 (001.507722)  can1  18F00E00   [8]  20 21 FF FF D5 9F FF FF
 (001.508289)  can1  0CF00C03   [8]  E8 03 A0 2B FF FF FF FF
 (001.510145)  can1  18F03300   [8]  FF FF FF FF FF FF FF FF
 (001.512084)  can1  0CF00400   [8]  71 A4 A3 90 2B 00 0F A4
 (001.515034)  can1  18FCF200   [8]  E1 FF FF FF FF FF FF FF
 (001.516896)  can1  0CF00203   [8]  C5 05 18 FF F7 6E 2B 03
 (001.520105)  can1  18FEDF00   [8]  8A A0 28 7D 7D FF FF F5
 (001.520697)  can1  18FDC600   [8]  FC 04 FF FF FF FF FF FF
 (001.521291)  can1  18F00F00   [8]  88 0F FF FF D5 9F FF FF
 (001.525499)  can1  0CF00300   [8]  D0 77 2F FF FF 0F 7D 82
 (001.526075)  can1  18FEF100   [8]  FF 90 1B FC FF 68 00 CF
 (001.526979)  can1  0CF00203   [8]  C5 05 18 FF F7 6E 2B 03
 (001.532117)  can1  0CF00400   [8]  11 A4 A4 B2 2B 00 0F A4
 (001.535031)  can1  10FDA300   [8]  FF FF 2D FF FF FF FF FF
 (001.535610)  can1  18F00029   [8]  F0 7D 7D F3 29 FF FF 38
 (001.536892)  can1  0CF00203   [8]  C5 17 18 FF F7 93 2B 03
 (001.540092)  can1  18FEDF00   [8]  8A A0 28 7D 7D FF FF F5
 (001.543948)  can1  18F00131   [8]  FF FF FF 3F 00 FF FF FF
 (001.544497)  can1  18FEF131   [8]  F3 FF FF C3 CC FF FF F0
 (001.545101)  can1  18FEF031   [8]  FF FF FF FF FF FC CC FF
 (001.545646)  can1  18FCDC00   [8]  9F FF FF FF 9C 68 90 1B
 (001.546241)  can1  18FF4831   [8]  00 00 FF FF 00 00 00 00
 (001.546817)  can1  0CF00300   [8]  D0 78 30 FF FF 0F 7D 82
 (001.547414)  can1  0CF00203   [8]  C5 17 18 FF F7 93 2B 03
 (001.547926)  can1  18FEF231   [8]  FF FF FF FF FF FF FF FF
 (001.548494)  can1  1CFE9200   [8]  FF 08 BE FF FF FF 54 00
 (001.549076)  can1  0CF00331   [8]  FF FF FF FF FF FF FF FF
 (001.549662)  can1  0C010305   [8]  FF FF FF FF FF F3 FF FF
 (001.552327)  can1  0CF00400   [8]  41 A5 A4 CC 2B 00 0F A5
 (001.555033)  can1  0CF00A00   [8]  17 05 63 15 FF FF FF FF
 (001.555621)  can1  18FD9400   [8]  FD 0C FF FF FF FF FF FF
 (001.556282)  can1  18F00E00   [8]  A0 21 FF FF D5 9F FF FF
 (001.556933)  can1  0CF00203   [8]  C5 1C 18 FF F7 B4 2B 03
 (001.560095)  can1  18F03300   [8]  FF FF FF FF FF FF FF FF
 (001.560670)  can1  18FEDF00   [8]  8A A0 28 7D 7D FF FF F5
 (001.565452)  can1  18FEF700   [8]  FF FF FF FF 18 01 FF FF
 (001.566031)  can1  18FEE000   [8]  E6 91 00 00 2F FB 34 00
 (001.566589)  can1  0CF00300   [8]  D0 79 30 FF FF 0F 7D 83
 (001.567128)  can1  0CF00203   [8]  C5 1C 18 FF F7 B4 2B 03
 (001.567733)  can1  18F00503   [8]  7F 12 07 7F 35 20 32 4C
 (001.568347)  can1  18FE4A03   [8]  03 0F 4F FF FF F3 FF FF
 (001.570144)  can1  18FEF200   [8]  E3 00 D5 04 7E 09 E1 FF
 (001.570720)  can1  18F00F00   [8]  88 0F FF FF D5 9F FF FF
 (001.572258)  can1  0CF00400   [8]  11 A5 A5 02 2C 00 0F A5
 (001.576904)  can1  0CF00203   [8]  C5 27 18 FF F7 D5 2B 03
 (001.578566)  can1  18F0010B   [8]  CF FF F0 FF FF CD FF FF
 (001.580176)  can1  18FEDF00   [8]  8A A0 28 7D 7D FF FF F5
 (001.580785)  can1  10FCFD00   [8]  FF FF FF FF A3 7B FF FF
 (001.585436)  can1  18FEC100   [8]  AC 87 2C 05 87 3F 0E 00
 (001.585995)  can1  0CF00300   [8]  D0 7A 31 FF FF 0F 7C 83
 (001.586968)  can1  0CF00203   [8]  C5 27 18 FF F7 D5 2B 03
 (001.588588)  can1  18FEBF0B   [8]  D0 1B 7E 7C 7E 7E FF FF
 (001.590124)  can1  18F00100   [8]  FF FF FF FF FF FF FF FF
 (001.592117)  can1  0CF00400   [8]  41 A6 A5 DD 2B 00 0F A6
 (001.593989)  can1  0CF00331   [8]  FF FF FF FF FF FF FF FF
 (001.596924)  can1  0CF00203   [8]  C5 5F 18 FF F7 EE 2B 03
 (001.599573)  can1  0C010305   [8]  FF FF FF FF FF F3 FF FF
 (001.600148)  can1  18FEDF00   [8]  8A A0 28 7D 7D FF FF F5
 (001.605457)  can1  0CF00300   [8]  D0 7B 31 FF FF 0F 7C 83
 (001.606034)  can1  0CF00A00   [8]  33 05 6C 15 FF FF FF FF
 (001.606680)  can1  18FEF000   [8]  FF FF FF C0 2B FF FF FF
 (001.607190)  can1  0CF00203   [8]  C5 5F 18 FF F7 EE 2B 03
 (001.607751)  can1  18F00E00   [8]  1C 22 FF FF D5 9F FF FF
 (001.608318)  can1  0CF00C03   [8]  E8 03 27 2C FF FF FF FF
 (001.610058)  can1  18FE5600   [8]  B8 38 FF FF 1F 1F 00 FF
 (001.610659)  can1  18F03300   [8]  FF FF FF FF FF FF FF FF
 (001.612155)  can1  0CF00400   [8]  61 A6 A5 0D 2C 00 0F A6
 (001.615022)  can1  18FCF200   [8]  E1 FF FF FF FF FF FF FF
 (001.616903)  can1  0CF00203   [8]  C5 4C 18 FF F7 EC 2B 03
 (001.620130)  can1  18FEDF00   [8]  8A A0 28 7D 7D FF FF F5
 (001.620713)  can1  18F00F00   [8]  88 0F FF FF D5 9F FF FF
 (001.625456)  can1  0CF00300   [8]  D0 7B 31 FF FF 0F 7A 83
 (001.626014)  can1  18FEF100   [8]  FF C8 1B FC FF 68 00 CF
 (001.626969)  can1  0CF00203   [8]  C5 4C 18 FF F7 EC 2B 03
 (001.630118)  can1  18FD7B00   [8]  00 FF A0 49 00 00 16 22
 (001.632132)  can1  0CF00400   [8]  71 A6 A5 26 2C 00 0F A6
 (001.635059)  can1  10FDA300   [8]  FF FF 2F FF FF FF FF FF
 (001.635668)  can1  18F00029   [8]  F0 7D 7D F3 29 FF FF 38
 (001.636907)  can1  0CF00203   [8]  C5 4C 18 FF F7 15 2C 03
 (001.640122)  can1  18FEDF00   [8]  8A A0 28 7D 7D FF FF F5
 (001.643909)  can1  18F00131   [8]  FF FF FF 3F 00 FF FF FF
 (001.644487)  can1  18FEF131   [8]  F3 FF FF C3 CC FF FF F0
 (001.645077)  can1  18FEF031   [8]  FF FF FF FF FF FC CC FF
 (001.645632)  can1  18FCDC00   [8]  9F FF FF FF 9C 68 C8 1B
 (001.646221)  can1  18FF4831   [8]  00 00 FF FF 00 00 00 00
 (001.646801)  can1  0CF00300   [8]  D0 7B 32 FF FF 0F 7A 83
 (001.647351)  can1  0CF00203   [8]  C5 4C 18 FF F7 15 2C 03
 (001.647925)  can1  18FEF231   [8]  FF FF FF FF FF FF FF FF
 (001.648507)  can1  1CFE9200   [8]  FF 40 C1 FF FF FF 58 00
 (001.649079)  can1  0CF00331   [8]  FF FF FF FF FF FF FF FF
 (001.649692)  can1  0C010305   [8]  FF FF FF FF FF F3 FF FF
 (001.652334)  can1  0CF00400   [8]  01 A6 A6 4D 2C 00 0F A6
 (001.655052)  can1  0CF00A00   [8]  33 05 75 15 FF FF FF FF
 (001.655634)  can1  18FD9400   [8]  FD 0C FF FF FF FF FF FF
 (001.656355)  can1  18FEDD00   [8]  FF 59 3B FF FF FF FF FF
 (001.656793)  can1  18F00E00   [8]  6C 22 FF FF D5 9F FF FF
 (001.657326)  can1  0CF00203   [8]  C5 5A 18 FF F7 28 2C 03
 (001.660160)  can1  18F03300   [8]  FF FF FF FF FF FF FF FF
 (001.660746)  can1  18FEDF00   [8]  8A A0 28 7D 7D FF FF F5
 (001.665452)  can1  18FEE000   [8]  E6 91 00 00 2F FB 34 00
 (001.666049)  can1  0CF00300   [8]  D0 7B 32 FF FF 0F 79 83
 (001.667065)  can1  0CF00203   [8]  C5 5A 18 FF F7 28 2C 03
 (001.667593)  can1  18F00503   [8]  7F 12 07 7F 35 20 32 4C
 (001.668318)  can1  18FE4A03   [8]  03 0F 4F FF FF F3 FF FF
 (001.668825)  can1  18FD9503   [8]  CC FF FF B4 FF FF FF FF
 (001.669434)  can1  18FEF803   [8]  FF FF FF FF AA 2C FF FF
 (001.670186)  can1  18FEF200   [8]  E3 00 E4 04 7F 09 E1 FF
 (001.670767)  can1  18F00F00   [8]  88 0F FF FF D5 9F FF FF
 (001.672387)  can1  0CF00400   [8]  01 A6 A6 47 2C 00 0F A6
 (001.675080)  can1  18FEE400   [8]  FF 3F FC FC 00 7F FF FF
 (001.676899)  can1  0CF00203   [8]  C5 81 18 FF F7 4E 2C 03
 (001.678801)  can1  18F0010B   [8]  CF FF F0 FF FF CD FF FF
 (001.680186)  can1  18FEDF00   [8]  8A A0 28 7D 7D FF FF F5
 (001.680792)  can1  10FCFD00   [8]  FF FF FF FF B6 7F FF FF
 (001.681357)  can1  0CFD9200   [8]  F4 FF FF FF FF FF FF FF
 (001.685435)  can1  0CF00300   [8]  D0 7B 32 FF FF 0F 79 83
 (001.686899)  can1  0CF00203   [8]  C5 81 18 FF F7 4E 2C 03
 (001.688823)  can1  18FEBF0B   [8]  F0 1B 7E 7C 7E 80 FF FF
 (001.690160)  can1  18F00100   [8]  FF FF FF FF FF FF FF FF
 (001.692139)  can1  0CF00400   [8]  01 A6 A6 61 2C 00 0F A6
 (001.694005)  can1  0CF00331   [8]  FF FF FF FF FF FF FF FF
 (001.696913)  can1  0CF00203   [8]  C5 79 18 FF F7 4D 2C 03
 (001.699607)  can1  0C010305   [8]  FF FF FF FF FF F3 FF FF
 (001.700276)  can1  18FEDF00   [8]  8A A0 28 7D 7D FF FF F5
 (001.705464)  can1  0CF00300   [8]  D0 7B 32 FF FF 0F 77 83
 (001.706036)  can1  0CF00A00   [8]  62 05 50 15 FF FF FF FF
 (001.706653)  can1  18FEF000   [8]  FF FF FF C0 2B FF FF FF
 (001.707172)  can1  0CF00203   [8]  C5 79 18 FF F7 4D 2C 03
 (001.707742)  can1  18FEBD00   [8]  00 F0 FF FF FF FF FF FF
 (001.708317)  can1  0CF00C03   [8]  E8 03 72 2C FF FF FF FF
 (001.708878)  can1  18F00E00   [8]  E2 22 FF FF D5 9F FF FF
 (001.710133)  can1  18F03300   [8]  FF FF FF FF FF FF FF FF
 (001.712114)  can1  0CF00400   [8]  71 A6 A5 68 2C 00 0F A6
 (001.714330)  can1  18FECA31   [8]  00 FF 00 00 00 00 FF FF
 (001.715086)  can1  18FCF200   [8]  E1 FF FF FF FF FF FF FF
 (001.716906)  can1  0CF00203   [8]  C5 6C 18 FF F7 51 2C 03
 (001.720239)  can1  18FEDF00   [8]  8A A0 28 7D 7D FF FF F5
 (001.720777)  can1  18E0FF00   [8]  00 FF FF FF FF FF FF FF
 (001.721379)  can1  18F00F00   [8]  88 0F FF FF D5 9F FF FF
 (001.725522)  can1  18FD0700   [8]  03 0C FC FF FF FF FF FF
 (001.726080)  can1  0CF00300   [8]  D0 7B 32 FF FF 0F 78 83
 (001.726758)  can1  18FEF100   [8]  FF 0C 1C FC FF 68 00 CF
 (001.727197)  can1  0CF00203   [8]  C5 6C 18 FF F7 51 2C 03
 (001.730189)  can1  18FEEE00   [8]  87 FF FF FF FF FF FF FF
 (001.732132)  can1  0CF00400   [8]  61 A6 A5 4F 2C 00 0F A6
 (001.735033)  can1  10FDA300   [8]  FF FF 30 FF FF FF FF FF
 (001.735651)  can1  18F00029   [8]  F0 7D 7D F3 29 FF FF 37
 (001.736955)  can1  0CF00203   [8]  C5 75 18 FF F7 46 2C 03
 (001.740131)  can1  18FEDF00   [8]  8A A0 28 7D 7D FF FF F5
 (001.743920)  can1  18F00131   [8]  FF FF FF 3F 00 FF FF FF
 (001.744503)  can1  18FEF131   [8]  F3 FF FF C3 CC FF FF F0
 (001.745147)  can1  18FEF031   [8]  FF FF FF FF FF FC CC FF
 (001.745668)  can1  18FCDC00   [8]  9F FF FF FF 9C 68 0C 1C
 (001.746242)  can1  18FF4831   [8]  00 00 FF FF 00 00 00 00
 (001.746809)  can1  0CF00300   [8]  D0 7A 31 FF FF 0F 77 83
 (001.747352)  can1  0CF00203   [8]  C5 75 18 FF F7 46 2C 03
 (001.747925)  can1  18FEF231   [8]  FF FF FF FF FF FF FF FF
 (001.748535)  can1  1CFE9200   [8]  FF 60 C1 FF FF FF 5A 00
 (001.749085)  can1  0CF00331   [8]  FF FF FF FF FF FF FF FF
 (001.749686)  can1  0C010305   [8]  FF FF FF FF FF F3 FF FF
 (001.750270)  can1  18FEF500   [8]  A9 FF FF D6 24 FF FF FF
 (001.752339)  can1  0CF00400   [8]  51 A6 A5 2F 2C 00 0F A6
 (001.755062)  can1  14FC9800   [8]  FF 00 00 00 00 00 00 FF
 (001.755657)  can1  0CF00A00   [8]  62 05 59 15 FF FF FF FF
 (001.756319)  can1  18FD9400   [8]  96 0F FF FF FF FF FF FF
 (001.756809)  can1  18F00E00   [8]  30 23 FF FF D5 9F FF FF
 (001.757394)  can1  0CF00203   [8]  C5 89 18 FF F7 5D 2C 03
 (001.760127)  can1  18F03300   [8]  FF FF FF FF FF FF FF FF
 (001.760710)  can1  18FEDF00   [8]  8A A0 28 7D 7D FF FF F5
 (001.765417)  can1  18FEE000   [8]  E6 91 00 00 2F FB 34 00
 (001.765988)  can1  0CF00300   [8]  D0 7A 31 FF FF 0F 78 83
 (001.766620)  can1  18FEA400   [8]  FF FF 60 29 FF FF 15 2E
 (001.767089)  can1  0CF00203   [8]  C5 89 18 FF F7 5D 2C 03
 (001.767696)  can1  18F00503   [8]  7F 12 07 7F 35 20 32 4C
 (001.768307)  can1  18FE4A03   [8]  03 0F 4F FF FF F3 FF FF
 (001.770175)  can1  18FDB400   [8]  8C 44 F9 3E FF FF FF FF
 (001.770736)  can1  18FEF200   [8]  EF 00 AE 04 7E 09 E1 FF
 (001.771306)  can1  18F00F00   [8]  92 0F FF FF D5 9F FF FF
 (001.772359)  can1  0CF00400   [8]  41 A5 A5 1F 2C 00 0F A5
 (001.776898)  can1  0CF00203   [8]  C5 65 18 FF F7 24 2C 03
 (001.779043)  can1  18F0010B   [8]  CF FF F0 FF FF CD FF FF
 (001.780220)  can1  18FEDF00   [8]  8A A0 28 7D 7D FF FF F5
 (001.780806)  can1  10FCFD00   [8]  FF FF FF FF 86 7D FF FF
 (001.785489)  can1  0CF00300   [8]  D0 79 31 FF FF 0F 78 83
 (001.786891)  can1  0CF00203   [8]  C5 65 18 FF F7 24 2C 03
 (001.788058)  can1  18F11031   [8]  00 00 FF FF FF FF FF FF
 (001.789073)  can1  18FEBF0B   [8]  20 1C 7D 7D 7D 7D FF FF
 (001.790255)  can1  18FD7C00   [8]  F8 83 00 00 C3 0F 03 FF
 (001.790749)  can1  18F00100   [8]  FF FF FF FF FF FF FF FF
 (001.792249)  can1  0CF00400   [8]  01 A5 A5 2B 2C 00 0F A5
 (001.794004)  can1  0CF00331   [8]  FF FF FF FF FF FF FF FF
 (001.795079)  can1  18FDB300   [8]  FF FF 76 43 FF FF FF FF
 (001.796900)  can1  0CF00203   [8]  C5 5A 18 FF F7 2E 2C 03
 (001.799581)  can1  0C010305   [8]  FF FF FF FF FF F3 FF FF
 (001.800160)  can1  18FEDF00   [8]  8A A0 28 7D 7D FF FF F5
 (001.805453)  can1  0CF00300   [8]  D0 79 30 FF FF 0F 7A 83
 (001.806022)  can1  0CF00A00   [8]  62 05 3D 15 FF FF FF FF
 (001.806652)  can1  18FEF000   [8]  FF FF FF C0 2B FF FF FF
 (001.807158)  can1  0CF00203   [8]  C5 5A 18 FF F7 2E 2C 03
 (001.807729)  can1  18F00E00   [8]  74 23 FF FF D5 9F FF FF
 (001.808285)  can1  0CF00C03   [8]  E8 03 5F 2C FF FF FF FF
 (001.810154)  can1  18F03300   [8]  FF FF FF FF FF FF FF FF
 (001.810725)  can1  18FE9A00   [8]  1E 26 FF FF FF FF FF FF
 (001.812333)  can1  0CF00400   [8]  71 A5 A4 30 2C 00 0F A5
 (001.815096)  can1  18FDB200   [8]  FF FF FF FF 12 00 FF FF
 (001.815690)  can1  18FCF200   [8]  E1 FF FF FF FF FF FF FF
 (001.816947)  can1  0CF00203   [8]  C5 6C 18 FF F7 33 2C 03
 (001.820146)  can1  18FEDF00   [8]  8A A0 28 7D 7D FF FF F5
 (001.820729)  can1  18F00F00   [8]  92 0F FF FF D5 9F FF FF
 (001.825548)  can1  0CF00300   [8]  D0 78 30 FF FF 0F 79 83
 (001.826098)  can1  18FEF100   [8]  FF 20 1C FC FF 68 00 CF
 (001.826963)  can1  0CF00203   [8]  C5 6C 18 FF F7 33 2C 03
 (001.832131)  can1  0CF00400   [8]  51 A5 A4 88 2C 00 0F A5
 (001.835085)  can1  10FDA300   [8]  FF FF 2E FF FF FF FF FF
 (001.835678)  can1  18FE9900   [8]  FF FF FF FF FF FF FF FF
 (001.836326)  can1  18F00029   [8]  F0 7D 7D F3 29 FF FF 38
 (001.836949)  can1  0CF00203   [8]  C5 8E 18 FF F7 6F 2C 03
 (001.840121)  can1  18FD8C00   [8]  FF FF 0E 00 FF FF FF FF
 (001.840704)  can1  18FEDF00   [8]  8A A0 28 7D 7D FF FF F5
 (001.843916)  can1  18F00131   [8]  FF FF FF 3F 00 FF FF FF
 (001.844499)  can1  18FEF131   [8]  F3 FF FF C3 CC FF FF F0
 (001.845087)  can1  18FEF031   [8]  FF FF FF FF FF FC CC FF
 (001.845653)  can1  18FCDC00   [8]  9F FF FF FF 9C 68 20 1C
 (001.846246)  can1  18FF4831   [8]  00 00 FF FF 00 00 00 00
 (001.846815)  can1  0CF00300   [8]  D0 78 30 FF FF 0F 79 83
 (001.847348)  can1  0CF00203   [8]  C5 8E 18 FF F7 6F 2C 03
 (001.847951)  can1  18FEF231   [8]  FF FF FF FF FF FF FF FF
 (001.848514)  can1  1CFE9200   [8]  FF A0 BF FF FF FF 58 00
 (001.849136)  can1  0CF00331   [8]  FF FF FF FF FF FF FF FF
 (001.849699)  can1  0C010305   [8]  FF FF FF FF FF F3 FF FF
 (001.852329)  can1  0CF00400   [8]  41 A4 A4 7F 2C 00 0F A4
 (001.855070)  can1  0CF00A00   [8]  87 05 7F 15 FF FF FF FF
 (001.855665)  can1  18FD9400   [8]  96 0F FF FF FF FF FF FF
 (001.856351)  can1  18FEFC00   [8]  FF FF FF FF FF FF FF FF
 (001.856837)  can1  18F00E00   [8]  9A 23 FF FF D5 9F FF FF
 (001.857366)  can1  0CF00203   [8]  C5 8A 18 FF F7 6F 2C 03
 (001.860151)  can1  18FD2000   [8]  B0 44 FF FF FF FF FF FF
 (001.860752)  can1  18F03300   [8]  FF FF FF FF FF FF FF FF
 (001.861312)  can1  18FEDF00   [8]  8A A0 28 7D 7D FF FF F5
 (001.865452)  can1  18FEE000   [8]  E6 91 00 00 2F FB 34 00
 (001.866016)  can1  0CF00300   [8]  D0 78 30 FF FF 0F 79 83
 (001.867016)  can1  0CF00203   [8]  C5 8A 18 FF F7 6F 2C 03
 (001.867570)  can1  18F00503   [8]  7F 12 07 7F 35 20 32 4C
 (001.868256)  can1  18FE4A03   [8]  03 0F 4F FF FF F3 FF FF
 (001.870186)  can1  18FEF200   [8]  F4 00 98 04 7E 09 E1 FF
 (001.870779)  can1  18F00F00   [8]  92 0F FF FF D5 9F FF FF
 (001.872393)  can1  0CF00400   [8]  41 A4 A4 B7 2C 00 0F A4
 (001.876900)  can1  0CF00203   [8]  C5 8B 18 FF F7 84 2C 03
 (001.879276)  can1  18F0010B   [8]  CF FF F0 FF FF CD FF FF
 (001.880221)  can1  18FEDF00   [8]  8A A0 28 7D 7D FF FF F5
 (001.880815)  can1  10FCFD00   [8]  FF FF FF FF 89 7E FF FF
 (001.885521)  can1  18FD3E00   [8]  23 41 FF D3 40 FF FF FF
 (001.886109)  can1  0CF00300   [8]  D0 78 30 FF FF 0F 79 83
 (001.887008)  can1  0CF00203   [8]  C5 8B 18 FF F7 84 2C 03
 (001.889324)  can1  18FEBF0B   [8]  40 1C 7D 7D 7B 7D FF FF
 (001.890197)  can1  18F00100   [8]  FF FF FF FF FF FF FF FF
 (001.892139)  can1  0CF00400   [8]  31 A4 A4 CC 2C 00 0F A4
 (001.894007)  can1  0CF00331   [8]  FF FF FF FF FF FF FF FF
 (001.896906)  can1  0CF00203   [8]  C5 B7 18 FF F7 B6 2C 03
 (001.899616)  can1  0C010305   [8]  FF FF FF FF FF F3 FF FF
 (001.900262)  can1  18FEDF00   [8]  8A A0 28 7D 7D FF FF F5
 (001.905517)  can1  18FD4000   [8]  FF 3F 00 FF FF FF FF FF
 (001.906086)  can1  0CF00300   [8]  D0 78 30 FF FF 0F 79 83
 (001.906743)  can1  0CF00A00   [8]  87 05 A4 15 FF FF FF FF
 (001.907226)  can1  0CF00203   [8]  C5 B7 18 FF F7 B6 2C 03
 (001.907806)  can1  18FEF000   [8]  FF FF FF C0 2B FF FF FF
 (001.908402)  can1  0CF00C03   [8]  E8 03 CA 2C FF FF FF FF
 (001.908939)  can1  18F00E00   [8]  B6 23 FF FF D5 9F FF FF
 (001.909534)  can1  18FECA00   [8]  03 FF 00 00 00 00 FF FF
 (001.910130)  can1  18F03300   [8]  FF FF FF FF FF FF FF FF
 (001.912112)  can1  0CF00400   [8]  31 A4 A4 E9 2C 00 0F A4
 (001.915105)  can1  18FCF200   [8]  E1 FF FF FF FF FF FF FF
 (001.916910)  can1  0CF00203   [8]  C5 BF 18 FF F7 CE 2C 03
 (001.920166)  can1  18FEDF00   [8]  8A A0 28 7D 7D FF FF F5
 (001.920753)  can1  18F00F00   [8]  9E 0F FF FF D5 9F FF FF
 (001.925586)  can1  0CF00300   [8]  D0 78 30 FF FF 0F 79 83
 (001.926175)  can1  18FEF100   [8]  FF 54 1C FC FF 68 00 CF
 (001.927032)  can1  0CF00203   [8]  C5 BF 18 FF F7 CE 2C 03
 (001.930205)  can1  18FCC500   [8]  23 41 FF FF FF FF FF FF
 (001.930820)  can1  0CFD9200   [8]  F4 FF FF FF FF FF FF FF
 (001.932444)  can1  0CF00400   [8]  41 A4 A4 AB 2C 00 0F A4
 (001.935106)  can1  10FDA300   [8]  FF FF 30 FF FF FF FF FF
 (001.935678)  can1  18F00029   [8]  F0 7D 7D F3 29 FF FF 37
 (001.936924)  can1  0CF00203   [8]  C5 BF 18 FF F7 CB 2C 03
 (001.940124)  can1  18FEDF00   [8]  8A A0 28 7D 7D FF FF F5
 (001.943923)  can1  18F00131   [8]  FF FF FF 3F 00 FF FF FF
 (001.944516)  can1  18E0FF31   [8]  00 FF FF FF FF F0 FF FF
 (001.945106)  can1  18FEF131   [8]  F3 FF FF C3 CC FF FF F0
 (001.945665)  can1  18FCDC00   [8]  9F FF FF FF 9C 68 54 1C
 (001.946340)  can1  18FEF031   [8]  FF FF FF FF FF FC CC FF
 (001.946810)  can1  0CF00300   [8]  D0 78 30 FF FF 0F 7A 83
 (001.947355)  can1  0CF00203   [8]  C5 BF 18 FF F7 CB 2C 03
 (001.947952)  can1  18FEFC31   [8]  FF B1 FF FF FF FF 00 FF
 (001.948502)  can1  1CFE9200   [8]  FF 9C C1 FF FF FF 56 00
 (001.949080)  can1  18FEAE31   [8]  FF FF 60 60 FF FF FF FF
 (001.949756)  can1  0C010305   [8]  FF FF FF FF FF F3 FF FF
 (001.950292)  can1  18FEF731   [8]  FF FF FF FF 19 01 FF FF
 (001.950844)  can1  18FF4831   [8]  00 00 FF FF 00 00 00 00
 (001.951440)  can1  18FD8331   [8]  F8 FF FF FF FF FF FF FF
 (001.952039)  can1  18FEF831   [8]  FF FF FF FF FF FF FF FF
 (001.952605)  can1  0CF00400   [8]  51 A5 A4 B9 2C 00 0F A5
 (001.953170)  can1  18FEF231   [8]  FF FF FF FF FF FF FF FF
 (001.953842)  can1  18FEFA31   [8]  FF BF BF FF FF FF FF FF
 (001.954346)  can1  18FEC131   [8]  AC 87 2C 05 FF FF FF FF
 (001.954971)  can1  0CF00331   [8]  FF FF FF FF FF FF FF FF
 (001.955506)  can1  0CF00A00   [8]  A3 05 75 15 FF FF FF FF
 (001.956090)  can1  18FD9400   [8]  96 0F FF FF FF FF FF FF
 (001.956656)  can1  18FEEF00   [8]  FF FF FF 42 98 7D FF FA
 (001.957223)  can1  0CF00203   [8]  C5 A8 18 FF F7 B1 2C 03
 (001.957789)  can1  18F00E00   [8]  BC 23 FF FF D5 9F FF FF
 (001.960208)  can1  18F03300   [8]  FF FF FF FF FF FF FF FF
 (001.960799)  can1  18FEDF00   [8]  8A A0 28 7D 7D FF FF F5
 (001.965497)  can1  18FEE000   [8]  E6 91 00 00 2F FB 34 00
 (001.966065)  can1  0CF00300   [8]  D0 79 30 FF FF 0F 79 83
 (001.966984)  can1  0CF00203   [8]  C5 A8 18 FF F7 B1 2C 03
 (001.967577)  can1  18F00503   [8]  7F 12 07 7F 35 20 32 4C
 (001.968275)  can1  18FE4A03   [8]  03 0F 4F FF FF F3 FF FF
 (001.970229)  can1  18FEF200   [8]  EE 00 BC 04 7F 09 E1 FF
 (001.970774)  can1  18F00F00   [8]  9E 0F FF FF D5 9F FF FF
 (001.972339)  can1  0CF00400   [8]  01 A5 A5 BD 2C 00 0F A5
 (001.975130)  can1  18FEDB00   [8]  FF FF E0 7C FF FF FF FF
 (001.976907)  can1  0CF00203   [8]  C5 C1 18 FF F7 C6 2C 03
 (001.979548)  can1  18F0010B   [8]  CF FF F0 FF FF CD FF FF
 (001.980265)  can1  18FEDF00   [8]  8A A0 28 7D 7D FF FF F5
 (001.980847)  can1  10FCFD00   [8]  FF FF FF FF 40 80 FF FF
 (001.985514)  can1  0CF00300   [8]  D0 79 30 FF FF 0F 79 83
 (001.986901)  can1  0CF00203   [8]  C5 C1 18 FF F7 C6 2C 03
 (001.989583)  can1  18FEBF0B   [8]  60 1C 7F 7B 7F 7B FF FF
 (001.990186)  can1  18F00100   [8]  FF FF FF FF FF FF FF FF
 (001.992158)  can1  0CF00400   [8]  11 A5 A5 DE 2C 00 0F A5
 (001.994004)  can1  0CF00331   [8]  FF FF FF FF FF FF FF FF
 (001.995171)  can1  18FEF600   [8]  FF 15 60 FF FF FF FF FF
 (001.996906)  can1  0CF00203   [8]  C5 B5 18 FF F7 BA 2C 03
 (001.999613)  can1  0C010305   [8]  FF FF FF FF FF F3 FF FF
 (002.000286)  can1  18FEDF00   [8]  8A A0 28 7D 7D FF FF F5
 (002.005493)  can1  0CF00300   [8]  D0 7A 30 FF FF 0F 78 83
 (002.006060)  can1  0CF00A00   [8]  A3 05 6C 15 FF FF FF FF
 (002.006741)  can1  18FEF000   [8]  FF FF FF C0 2B FF FF FF
 (002.007192)  can1  0CF00203   [8]  C5 B5 18 FF F7 BA 2C 03
 (002.007818)  can1  18F00E00   [8]  BE 23 FF FF D5 9F FF FF
 (002.008330)  can1  0CF00C03   [8]  E8 03 B5 2C FF FF FF FF
 (002.010180)  can1  18F03300   [8]  FF FF FF FF FF FF FF FF
 (002.012303)  can1  0CF00400   [8]  11 A5 A5 C5 2C 00 0F A5
 (002.015112)  can1  18FCF200   [8]  E1 FF FF FF FF FF FF FF
 (002.016927)  can1  0CF00203   [8]  C5 BE 18 FF F7 D5 2C 03
 (002.020232)  can1  18FEDF00   [8]  8A A0 28 7D 7D FF FF F5
 (002.020771)  can1  18FDC600   [8]  FC 04 FF FF FF FF FF FF
 (002.021347)  can1  18F00F00   [8]  B4 0F FF FF D5 9F FF FF
 (002.025578)  can1  0CF00300   [8]  D0 7A 30 FF FF 0F 79 83
 (002.026141)  can1  18FEF100   [8]  FF 68 1C FC FF 68 00 CF
 (002.026983)  can1  0CF00203   [8]  C5 BE 18 FF F7 D5 2C 03
 (002.032144)  can1  0CF00400   [8]  11 A5 A5 00 2D 00 0F A5
 (002.035123)  can1  10FDA300   [8]  FF FF 2E FF FF FF FF FF
 (002.035722)  can1  18F00029   [8]  F0 7D 7D F3 29 FF FF 37
 (002.036920)  can1  0CF00203   [8]  C5 C2 18 FF F7 E3 2C 03
 (002.040176)  can1  18FEDF00   [8]  8A A0 28 7D 7D FF FF F5
 (002.040754)  can1  1CECFF00   [8]  20 22 00 05 FF E3 FE 00
 (002.043918)  can1  18F00131   [8]  FF FF FF 3F 00 FF FF FF
 (002.044504)  can1  18FEF131   [8]  F3 FF FF C3 CC FF FF F0
 (002.045119)  can1  18FEF031   [8]  FF FF FF FF FF FC CC FF
 (002.045677)  can1  18FCDC00   [8]  9F FF FF FF 9C 68 68 1C
 (002.046243)  can1  18FF4831   [8]  00 00 FF FF 00 00 00 00
 (002.046815)  can1  0CF00300   [8]  D0 7A 31 FF FF 0F 78 83
 (002.047358)  can1  0CF00203   [8]  C5 C2 18 FF F7 E3 2C 03
 (002.047986)  can1  18FEF231   [8]  FF FF FF FF FF FF FF FF
 (002.048511)  can1  1CFE9200   [8]  FF A8 BF FF FF FF 58 00
 (002.049104)  can1  0CF00331   [8]  FF FF FF FF FF FF FF FF
 (002.049729)  can1  0C010305   [8]  FF FF FF FF FF F3 FF FF
 (002.052358)  can1  0CF00400   [8]  11 A5 A5 36 2D 00 0F A5
 (002.055116)  can1  0CF00A00   [8]  F8 05 3D 15 FF FF FF FF
 (002.055713)  can1  18FD9400   [8]  96 0F FF FF FF FF FF FF
 (002.056370)  can1  18F00E00   [8]  BC 23 FF FF D5 9F FF FF
 (002.056909)  can1  0CF00203   [8]  C5 E2 18 FF F7 0B 2D 03
 (002.060178)  can1  18F03300   [8]  FF FF FF FF FF FF FF FF
 (002.060761)  can1  18FEDF00   [8]  8A A0 28 7D 7D FF FF F5
 (002.065531)  can1  18FEE000   [8]  E6 91 00 00 2F FB 34 00
 (002.066088)  can1  0CF00300   [8]  D0 7A 31 FF FF 0F 77 83
 (002.066981)  can1  0CF00203   [8]  C5 E2 18 FF F7 0B 2D 03
 (002.067653)  can1  18F00503   [8]  7F 12 07 7F 35 20 32 4C
 (002.068273)  can1  18FE4A03   [8]  03 0F 4F FF FF F3 FF FF
 (002.070206)  can1  18FEF200   [8]  E9 00 DC 04 7E 09 E1 FF
 (002.070797)  can1  18F00F00   [8]  B4 0F FF FF D5 9F FF FF
 (002.072337)  can1  0CF00400   [8]  11 A5 A5 79 2D 00 0F A5
 (002.076903)  can1  0CF00203   [8]  C5 FE 18 FF F7 3B 2D 03
 (002.079800)  can1  18F0010B   [8]  CF FF F0 FF FF CD FF FF
 (002.080375)  can1  18FEDF00   [8]  8A A0 28 7D 7D FF FF F5
 (002.080965)  can1  10FCFD00   [8]  FF FF FF FF 6C 83 FF FF
 (002.085557)  can1  0CF00300   [8]  D0 7A 31 FF FF 0F 76 83
 (002.086903)  can1  0CF00203   [8]  C5 FE 18 FF F7 3B 2D 03
 (002.089849)  can1  18FEBF0B   [8]  90 1C 7E 7C 80 80 FF FF
 (002.090426)  can1  18F00100   [8]  FF FF FF FF FF FF FF FF
 (002.092319)  can1  0CF00400   [8]  01 A5 A5 80 2D 00 0F A5
 (002.092781)  can1  1CEBFF00   [8]  01 00 19 B3 30 52 C2 E8
 (002.094037)  can1  0CF00331   [8]  FF FF FF FF FF FF FF FF
 (002.096917)  can1  0CF00203   [8]  C5 15 19 FF F7 87 2D 03
 (002.099615)  can1  0C010305   [8]  FF FF FF FF FF F3 FF FF
 (002.100276)  can1  18FEDF00   [8]  8A A0 28 7D 7D FF FF F5
 (002.105488)  can1  0CF00300   [8]  D0 7A 30 FF FF 0F 76 83
 (002.106071)  can1  0CF00A00   [8]  EE 05 D3 15 FF FF FF FF
 (002.106681)  can1  18FEF000   [8]  FF FF FF C0 2B FF FF FF
 (002.107209)  can1  0CF00203   [8]  C5 15 19 FF F7 87 2D 03
 (002.107784)  can1  18F00E00   [8]  BA 23 FF FF D5 9F FF FF
 (002.108337)  can1  0CF00C03   [8]  E8 03 8D 2D FF FF FF FF
 (002.110177)  can1  18F03300   [8]  FF FF FF FF FF FF FF FF
 (002.112235)  can1  0CF00400   [8]  11 A5 A5 B0 2D 00 0F A5
 (002.115137)  can1  18FCF200   [8]  E1 FF FF FF FF FF FF FF
 (002.116921)  can1  0CF00203   [8]  C5 1E 19 FF F7 82 2D 03
 (002.120162)  can1  18FEDF00   [8]  8A A0 28 7D 7D FF FF F5
 (002.120750)  can1  18F00F00   [8]  BE 0F FF FF D5 9F FF FF
 (002.125529)  can1  0CF00300   [8]  D0 7A 30 FF FF 0F 75 83
 (002.126107)  can1  18FEF100   [8]  FF B4 1C FC FF 68 00 CF
 (002.126959)  can1  0CF00203   [8]  C5 1E 19 FF F7 82 2D 03
 (002.132229)  can1  0CF00400   [8]  11 A5 A5 B2 2D 00 0F A5
 (002.135157)  can1  10FDA300   [8]  FF FF 30 FF FF FF FF FF
 (002.135728)  can1  18F00029   [8]  F0 7D 7D F3 29 FF FF 37
 (002.136947)  can1  0CF00203   [8]  C5 3A 19 FF F7 A6 2D 03
 (002.140218)  can1  18FEDF00   [8]  8A A0 28 7D 7D FF FF F5
 (002.143929)  can1  18F00131   [8]  FF FF FF 3F 00 FF FF FF
 (002.144514)  can1  18FEF131   [8]  F3 FF FF C3 CC FF FF F0
 (002.145175)  can1  18FEF031   [8]  FF FF FF FF FF FC CC FF
 (002.145661)  can1  18FCDC00   [8]  9F FF FF FF 9C 68 B4 1C
 (002.146259)  can1  18FF4831   [8]  00 00 FF FF 00 00 00 00
 (002.146818)  can1  0CF00300   [8]  D0 7A 30 FF FF 0F 77 83
 (002.147363)  can1  0CF00203   [8]  C5 3A 19 FF F7 A6 2D 03
 (002.147942)  can1  18FEF231   [8]  FF FF FF FF FF FF FF FF
 (002.148513)  can1  1CFE9200   [8]  FF F4 C0 FF FF FF 5A 00
 (002.149086)  can1  0CF00331   [8]  FF FF FF FF FF FF FF FF
 (002.149674)  can1  0C010305   [8]  FF FF FF FF FF F3 FF FF
 (002.150243)  can1  1CEBFF00   [8]  02 1C B9 60 22 C7 C0 44
 (002.152304)  can1  0CF00400   [8]  11 A5 A5 A4 2D 00 0F A5
 (002.155137)  can1  0CF00A00   [8]  EE 05 CA 15 FF FF FF FF
 (002.155737)  can1  18FD9400   [8]  30 12 FF FF FF FF FF FF
 (002.156283)  can1  18F00E00   [8]  AE 23 FF FF D5 9F FF FF
 (002.156910)  can1  0CF00203   [8]  C5 29 19 FF F7 8F 2D 03
 (002.160231)  can1  18F03300   [8]  FF FF FF FF FF FF FF FF
 (002.160825)  can1  18FEDF00   [8]  8A A0 28 7D 7D FF FF F5
 (002.165561)  can1  18FEE000   [8]  E6 91 00 00 2F FB 34 00
 (002.166121)  can1  0CF00300   [8]  D0 79 30 FF FF 0F 76 83
 (002.166978)  can1  0CF00203   [8]  C5 29 19 FF F7 8F 2D 03
 (002.167585)  can1  18F00503   [8]  7F 12 07 7F 35 20 32 4C
 (002.168262)  can1  18FE4A03   [8]  03 0F 4F FF FF F3 FF FF
 (002.170259)  can1  18FEF200   [8]  11 01 2F 04 7E 09 E1 FF
 (002.170836)  can1  18F00F00   [8]  BE 0F FF FF D5 9F FF FF
 (002.172412)  can1  0CF00400   [8]  51 A5 A4 7E 2D 00 0F A5
 (002.176897)  can1  0CF00203   [8]  C5 33 19 FF F7 AD 2D 03
 (002.180050)  can1  18F0010B   [8]  CF FF F0 FF FF CD FF FF
 (002.180623)  can1  18FEDF00   [8]  8A A0 28 7D 7D FF FF F5
 (002.181205)  can1  10FCFD00   [8]  FF FF FF FF 30 83 FF FF
 (002.181787)  can1  0CFD9200   [8]  F4 FF FF FF FF FF FF FF
 (002.185581)  can1  0CF00300   [8]  D0 77 30 FF FF 0F 76 83
 (002.186914)  can1  0CF00203   [8]  C5 33 19 FF F7 AD 2D 03
 (002.190077)  can1  18FEBF0B   [8]  B0 1C 7C 7E 80 80 FF FF
 (002.190656)  can1  18F00100   [8]  FF FF FF FF FF FF FF FF
 (002.192323)  can1  0CF00400   [8]  01 A4 A4 78 2D 00 0F A4
 (002.194011)  can1  0CF00331   [8]  FF FF FF FF FF FF FF FF
 (002.196914)  can1  0CF00203   [8]  C5 23 19 FF F7 83 2D 03
 (002.199645)  can1  0C010305   [8]  FF FF FF FF FF F3 FF FF
 (002.200271)  can1  18FEDF00   [8]  8A A0 28 7D 7D FF FF F5
 (002.202950)  can1  1CEBFF00   [8]  03 CB 80 57 FF FF 55 04
 (002.205572)  can1  0CF00300   [8]  D0 75 2F FF FF 0F 77 83
 (002.206144)  can1  0CF00A00   [8]  39 06 59 15 FF FF FF FF
 (002.206737)  can1  18FEF000   [8]  FF FF FF C0 2B FF FF FF
 (002.207281)  can1  0CF00203   [8]  C5 23 19 FF F7 83 2D 03
 (002.207846)  can1  18F00E00   [8]  AE 23 FF FF D5 9F FF FF
 (002.208443)  can1  0CF00C03   [8]  E8 03 89 2D FF FF FF FF
 (002.210203)  can1  18F03300   [8]  FF FF FF FF FF FF FF FF
 (002.212291)  can1  0CF00400   [8]  01 A3 A3 6A 2D 00 0F A3
 (002.215152)  can1  18FCF200   [8]  E1 FF FF FF FF FF FF FF
 (002.216949)  can1  0CF00203   [8]  C5 1C 19 FF F7 6A 2D 03
 (002.220368)  can1  18FEDF00   [8]  8A A0 28 7D 7D FF FF F5
 (002.220802)  can1  18F00F00   [8]  BE 0F FF FF D5 9F FF FF
 (002.225575)  can1  0CF00300   [8]  D0 74 2E FF FF 0F 78 83
 (002.226138)  can1  18FEF100   [8]  FF DC 1C FC FF 68 00 CF
 (002.226984)  can1  0CF00203   [8]  C5 1C 19 FF F7 6A 2D 03
 (002.232341)  can1  0CF00400   [8]  41 A3 A2 45 2D 00 0F A3
 (002.235155)  can1  10FDA300   [8]  FF FF 2F FF FF FF FF FF
 (002.235767)  can1  18F00029   [8]  F0 7D 7D F3 29 FF FF 37
 (002.236956)  can1  0CF00203   [8]  C5 09 19 FF F7 52 2D 03
 (002.240221)  can1  18FEDF00   [8]  8A A0 28 7D 7D FF FF F5
 (002.243926)  can1  18F00131   [8]  FF FF FF 3F 00 FF FF FF
 (002.244508)  can1  18FEF131   [8]  F3 FF FF C3 CC FF FF F0
 (002.245091)  can1  18FEF031   [8]  FF FF FF FF FF FC CC FF
 (002.245670)  can1  18FCDC00   [8]  9F FF FF FF 9C 68 DC 1C
 (002.246250)  can1  18FF4831   [8]  00 00 FF FF 00 00 00 00
 (002.246801)  can1  0CF00300   [8]  D0 73 2D FF FF 0F 78 83
 (002.247375)  can1  0CF00203   [8]  C5 09 19 FF F7 52 2D 03
 (002.247928)  can1  18FEF231   [8]  FF FF FF FF FF FF FF FF
 (002.248501)  can1  1CFE9200   [8]  FF EC BE FF FF FF 56 00
 (002.249090)  can1  0CF00331   [8]  FF FF FF FF FF FF FF FF
 (002.249667)  can1  0C010305   [8]  FF FF FF FF FF F3 FF FF
 (002.252321)  can1  0CF00400   [8]  01 A2 A2 30 2D 00 0F A2
 (002.255147)  can1  14FC9800   [8]  FF 00 00 00 00 00 00 FF
 (002.255772)  can1  0CF00A00   [8]  7B 06 05 15 FF FF FF FF
 (002.256438)  can1  18FD9400   [8]  C9 14 FF FF FF FF FF FF
 (002.256928)  can1  18F00E00   [8]  B4 23 FF FF D5 9F FF FF
 (002.257460)  can1  0CF00203   [8]  C5 07 19 FF F7 61 2D 03
 (002.258017)  can1  1CEBFF00   [8]  04 38 5E 14 46 FA 7D C7
 (002.260217)  can1  18F03300   [8]  FF FF FF FF FF FF FF FF
 (002.260813)  can1  18FEDF00   [8]  8A A0 28 7D 7D FF FF F5
 (002.265553)  can1  18FEE000   [8]  E6 91 00 00 2F FB 34 00
 (002.266145)  can1  0CF00300   [8]  D0 72 2D FF FF 0F 79 83
 (002.266995)  can1  0CF00203   [8]  C5 07 19 FF F7 61 2D 03
 (002.267597)  can1  18F00503   [8]  7F 12 07 7F 35 20 32 4C
 (002.268390)  can1  18FE4A03   [8]  03 0F 4F FF FF F3 FF FF
 (002.270292)  can1  18FDB400   [8]  CC 44 0C 3F FF FF FF FF
 (002.270811)  can1  18FEF200   [8]  F1 00 C6 04 7F 09 E1 FF
 (002.271403)  can1  18F00F00   [8]  BE 0F FF FF D5 9F FF FF
 (002.272369)  can1  0CF00400   [8]  71 A2 A1 15 2D 00 0F A2
 (002.276918)  can1  0CF00203   [8]  C5 F7 18 FF F7 21 2D 03
 (002.280264)  can1  18FEDF00   [8]  8A A0 28 7D 7D FF FF F5
 (002.280824)  can1  18F0010B   [8]  CF FF F0 FF FF CD FF FF
 (002.281410)  can1  10FCFD00   [8]  FF FF FF FF D3 79 FF FF
 (002.285589)  can1  0CF00300   [8]  D0 72 2C FF FF 0F 7A 83
 (002.286908)  can1  0CF00203   [8]  C5 F7 18 FF F7 21 2D 03
 (002.290232)  can1  18F00100   [8]  FF FF FF FF FF FF FF FF
 (002.290793)  can1  18FEBF0B   [8]  D0 1C 7E 7C 7E 7C FF FF
 (002.292233)  can1  0CF00400   [8]  41 A2 A1 21 2D 00 0F A2
 (002.294017)  can1  0CF00331   [8]  FF FF FF FF FF FF FF FF
 (002.295233)  can1  18FDB300   [8]  FF FF 93 43 FF FF FF FF
 (002.296907)  can1  0CF00203   [8]  C5 F3 18 FF F7 23 2D 03
 (002.299646)  can1  0C010305   [8]  FF FF FF FF FF F3 FF FF
 (002.300280)  can1  18FEDF00   [8]  8A A0 28 7D 7D FF FF F5
 (002.305524)  can1  0CF00300   [8]  D0 72 2C FF FF 0F 7B 82
 (002.306089)  can1  0CF00A00   [8]  97 06 BA 14 FF FF FF FF
 (002.306723)  can1  18FEF000   [8]  FF FF FF C0 2B FF FF FF
 (002.307229)  can1  0CF00203   [8]  C5 F3 18 FF F7 23 2D 03
 (002.307843)  can1  18F00E00   [8]  A2 23 FF FF D5 9F FF FF
 (002.308387)  can1  0CF00C03   [8]  E8 03 33 2D FF FF FF FF
 (002.310205)  can1  18F03300   [8]  FF FF FF FF FF FF FF FF
 (002.312668)  can1  0CF00400   [8]  51 A2 A1 23 2D 00 0F A2
 (002.312764)  can1  1CEBFF00   [8]  05 80 57 86 00 F7 02 FF
 (002.315172)  can1  18FDB200   [8]  FF FF FF FF 11 00 FF FF
 (002.315708)  can1  18FCF200   [8]  E1 FF FF FF FF FF FF FF
 (002.316959)  can1  0CF00203   [8]  C5 E8 18 FF F7 24 2D 03
 (002.320384)  can1  18FEDF00   [8]  8A A0 28 7D 7D FF FF F5
 (002.320826)  can1  18F00F00   [8]  BE 0F FF FF D5 9F FF FF
 (002.325582)  can1  0CF00300   [8]  D0 73 2C FF FF 0F 7B 82
 (002.326146)  can1  18FEF100   [8]  FF D0 1C FC FF 68 00 CF
 (002.326972)  can1  0CF00203   [8]  C5 E8 18 FF F7 24 2D 03
 (002.332247)  can1  0CF00400   [8]  11 A2 A2 4F 2D 00 0F A2
 (002.335159)  can1  10FDA300   [8]  FF FF 2B FF FF FF FF FF
 (002.335733)  can1  18F00029   [8]  F0 7D 7D F3 29 FF FF 37
 (002.336950)  can1  0CF00203   [8]  C5 FE 18 FF F7 4C 2D 03
 (002.340227)  can1  18FD8C00   [8]  FF FF 0D 00 FF FF FF FF
 (002.340820)  can1  18FEDF00   [8]  8A A0 28 7D 7D FF FF F5
 (002.343940)  can1  18F00131   [8]  FF FF FF 3F 00 FF FF FF
 (002.344524)  can1  18FEF131   [8]  F3 FF FF C3 CC FF FF F0
 (002.345169)  can1  18FEF031   [8]  FF FF FF FF FF FC CC FF
 (002.345690)  can1  18FCDC00   [8]  9F FF FF FF 9C 68 D0 1C
 (002.346262)  can1  18FF4831   [8]  00 00 FF FF 00 00 00 00
 (002.346835)  can1  0CF00300   [8]  D0 76 2D FF FF 0F 7A 82
 (002.347382)  can1  0CF00203   [8]  C5 FE 18 FF F7 4C 2D 03
 (002.348014)  can1  18FEF231   [8]  FF FF FF FF FF FF FF FF
 (002.348576)  can1  18FECA03   [8]  00 FF 00 00 00 00 FF FF
 (002.349092)  can1  0CF00331   [8]  FF FF FF FF FF FF FF FF
 (002.349691)  can1  0C010305   [8]  FF FF FF FF FF F3 FF FF
 (002.350257)  can1  1CFE9200   [8]  FF 38 BD FF FF FF 4E 00
 (002.352377)  can1  0CF00400   [8]  21 A3 A3 5B 2D 00 0F A3
 (002.355133)  can1  0CF00A00   [8]  84 06 0E 15 FF FF FF FF
 (002.355726)  can1  18FD9400   [8]  30 12 FF FF FF FF FF FF
 (002.356506)  can1  18F00E00   [8]  AA 23 FF FF D5 9F FF FF
 (002.356902)  can1  0CF00203   [8]  C5 08 19 FF F7 44 2D 03
 (002.360234)  can1  18FD2000   [8]  CC 44 FF FF FF FF FF FF
 (002.360847)  can1  18F03300   [8]  FF FF FF FF FF FF FF FF
 (002.361384)  can1  18FEDF00   [8]  8A A0 28 7D 7D FF FF F5
 (002.365535)  can1  18FEE000   [8]  E6 91 00 00 2F FB 34 00
 (002.366098)  can1  0CF00300   [8]  D0 78 2E FF FF 0F 7A 82
 (002.366989)  can1  0CF00203   [8]  C5 08 19 FF F7 44 2D 03
 (002.367591)  can1  18F00503   [8]  7F 12 07 7F 35 20 32 4C
 (002.368313)  can1  18FE4A03   [8]  03 0F 4F FF FF F3 FF FF
 (002.370272)  can1  18FEF200   [8]  E7 00 FC 04 7E 09 E1 FF
 (002.370863)  can1  18F00F00   [8]  BE 0F FF FF D5 9F FF FF
 (002.372328)  can1  0CF00400   [8]  71 A4 A3 98 2D 00 0F A4
 (002.376918)  can1  0CF00203   [8]  C5 16 19 FF F7 6A 2D 03
 (002.380280)  can1  18FEDF00   [8]  8A A0 28 7D 7D FF FF F5
 (002.380841)  can1  18F0010B   [8]  CF FF F0 FF FF CD FF FF
 (002.381502)  can1  10FCFD00   [8]  FF FF FF FF C0 7F FF FF
 (002.385627)  can1  18FD3E00   [8]  23 41 FF D9 40 FF FF FF
 (002.386204)  can1  0CF00300   [8]  D0 79 2F FF FF 0F 79 82
 (002.386983)  can1  0CF00203   [8]  C5 16 19 FF F7 6A 2D 03
 (002.390229)  can1  18F00100   [8]  FF FF FF FF FF FF FF FF
 (002.390808)  can1  18FEBF0B   [8]  20 1D 7D 7D 7D 7D FF FF
 (002.392251)  can1  0CF00400   [8]  21 A4 A4 F0 2D 00 0F A4
 (002.394014)  can1  0CF00331   [8]  FF FF FF FF FF FF FF FF
 (002.396916)  can1  0CF00203   [8]  C5 33 19 FF F7 B4 2D 03
 (002.399659)  can1  0C010305   [8]  FF FF FF FF FF F3 FF FF
 (002.400361)  can1  18FEDF00   [8]  8A A0 28 7D 7D FF FF F5
 (002.405567)  can1  18FD4000   [8]  FF 3F 00 FF FF FF FF FF
 (002.406134)  can1  0CF00300   [8]  D0 79 30 FF FF 0F 77 83
 (002.406699)  can1  0CF00A00   [8]  84 06 3D 15 FF FF FF FF
 (002.407255)  can1  0CF00203   [8]  C5 33 19 FF F7 B4 2D 03
 (002.407836)  can1  18FEF000   [8]  FF FF FF C0 2B FF FF FF
 (002.408398)  can1  0CF00C03   [8]  E8 03 41 2E FF FF FF FF
 (002.408975)  can1  18F00E00   [8]  86 23 FF FF D5 9F FF FF
 (002.410228)  can1  18F03300   [8]  FF FF FF FF FF FF FF FF
 (002.412464)  can1  0CF00400   [8]  31 A4 A4 88 2E 00 0F A4
 (002.415190)  can1  18FCF200   [8]  E1 FF FF FF FF FF FF FF
 (002.416908)  can1  0CF00203   [8]  C5 79 19 FF F7 2D 2E 03
 (002.420369)  can1  18FEDF00   [8]  8A A0 28 7D 7D FF FF F5
 (002.420827)  can1  18F00F00   [8]  BE 0F FF FF D5 9F FF FF
 (002.425613)  can1  0CF00300   [8]  D0 79 30 FF FF 0F 75 83
 (002.426179)  can1  18FEF100   [8]  FF E8 1C FC FF 68 00 CF
 (002.426992)  can1  0CF00203   [8]  C5 79 19 FF F7 2D 2E 03
 (002.430260)  can1  18FCC500   [8]  23 41 FF FF FF FF FF FF
 (002.430854)  can1  0CFD9200   [8]  F4 FF FF FF FF FF FF FF
 (002.432295)  can1  0CF00400   [8]  31 A4 A4 D5 2E 00 0F A4
 (002.435193)  can1  10FDA300   [8]  FF FF 31 FF FF FF FF FF
 (002.435764)  can1  18F00029   [8]  F0 7D 7D F3 29 FF FF 37
 (002.437016)  can1  0CF00203   [8]  C5 B1 19 FF F7 7B 2E 03
 (002.440250)  can1  18FEDF00   [8]  8A A0 28 7D 7D FF FF F5
 (002.443932)  can1  18F00131   [8]  FF FF FF 3F 00 FF FF FF
 (002.444518)  can1  18FEF131   [8]  F3 FF FF C3 CC FF FF F0
 (002.445127)  can1  18FEF031   [8]  FF FF FF FF FF FC CC FF
 (002.445666)  can1  18FCDC00   [8]  9F FF FF FF 9C 68 E8 1C
 (002.446296)  can1  18FF4831   [8]  00 00 FF FF 00 00 00 00
 (002.446816)  can1  0CF00300   [8]  D0 7A 30 FF FF 0F 74 83
 (002.447370)  can1  0CF00203   [8]  C5 B1 19 FF F7 7B 2E 03
 (002.447943)  can1  18FEF231   [8]  FF FF FF FF FF FF FF FF
 (002.448509)  can1  1CFE9200   [8]  FF 8C C2 FF FF FF 58 00
 (002.449083)  can1  0CF00331   [8]  FF FF FF FF FF FF FF FF
 (002.449721)  can1  0C010305   [8]  FF FF FF FF FF F3 FF FF
 (002.452421)  can1  0CF00400   [8]  51 A5 A4 09 2F 00 0F A5
 (002.455202)  can1  0CF00A00   [8]  A0 06 88 15 FF FF FF FF
 (002.455796)  can1  18FD9400   [8]  30 12 FF FF FF FF FF FF
 (002.456390)  can1  18FEEF00   [8]  FF FF FF 45 9D 7D FF FA
 (002.456920)  can1  0CF00203   [8]  C5 CF 19 FF F7 C1 2E 03
 (002.457565)  can1  18F00E00   [8]  5A 23 FF FF D5 9F FF FF
 (002.460225)  can1  18F03300   [8]  FF FF FF FF FF FF FF FF
 (002.460791)  can1  18FEDF00   [8]  8B A0 28 7D 7D FF FF F5
 (002.465590)  can1  18FEE000   [8]  E6 91 00 00 2F FB 34 00
 (002.466153)  can1  0CF00300   [8]  D0 7A 30 FF FF 0F 73 83
 (002.466997)  can1  0CF00203   [8]  C5 CF 19 FF F7 C1 2E 03
 (002.467600)  can1  18F00503   [8]  7F 12 07 7F 35 20 32 4C
 (002.468311)  can1  18FE4A03   [8]  03 0F 4F FF FF F3 FF FF
 (002.470271)  can1  18FEF200   [8]  D5 00 68 05 7F 09 E1 FF
 (002.470859)  can1  18F00F00   [8]  BE 0F FF FF D5 9F FF FF
 (002.472332)  can1  0CF00400   [8]  61 A5 A4 06 2F 00 0F A5
 (002.475228)  can1  18FEDB00   [8]  FF FF FD 7B FF FF FF FF
 (002.476917)  can1  0CF00203   [8]  C5 E9 19 FF F7 FB 2E 03
 (002.480286)  can1  18FEDF00   [8]  8B A0 28 7D 7D FF FF F5
 (002.480847)  can1  18F0010B   [8]  CF FF F0 FF FF CD FF FF
